!Created with skrf (http://scikit-rf.org).
# Hz S RI R 50.0 
!freq ReS11 ImS11 ReS21 ImS21 ReS12 ImS12 ReS22 ImS22
3800000000.0 0.03146795183 0.03597027195 -0.0001025623424 0.004650757648 -0.0003532386036 0.004572763108 -0.2897213101 0.6769260809
3801000000.0 0.0250499621 0.03448785356 0.0002372866729 0.004548100289 -2.072828465e-05 0.004581274465 -0.2313854247 0.7059906335
3802000000.0 0.01837005652 0.03447665727 0.000625449291 0.004418866709 0.0003723449481 0.00450032251 -0.1716118157 0.7297175329
3803000000.0 0.01186228916 0.03564092534 0.001012961031 0.004212894011 0.0007089983555 0.004297262058 -0.1117828116 0.747397479
3804000000.0 0.005802983418 0.03811279186 0.001284678001 0.004062179942 0.001112608123 0.004256563261 -0.05186133459 0.7599532257
3805000000.0 0.0001731400698 0.04166089138 0.001663668896 0.003901186166 0.001474927762 0.004043711349 0.007942685857 0.7673369412
3806000000.0 -0.004778237082 0.04652036865 0.00186006166 0.003711222438 0.001776187099 0.003885082901 0.0674059689 0.7694060381
3807000000.0 -0.008872259408 0.05240682038 0.002196991351 0.003470945638 0.001966997981 0.003716005245 0.1262357086 0.7668548876
3808000000.0 -0.01201912388 0.0591904264 0.002318928484 0.00323748216 0.002168765757 0.00350158033 0.1837649941 0.7596954209
3809000000.0 -0.01370323263 0.06675976201 0.002552794525 0.003003299469 0.002435123548 0.003243167186 0.2395317256 0.7484786826
3810000000.0 -0.01433469635 0.07472853811 0.002723537153 0.002802852541 0.002603609115 0.002974479459 0.29332757 0.7330929801
3811000000.0 -0.01385763753 0.08321757044 0.002871024422 0.002590832766 0.002823631046 0.002772186883 0.3457630277 0.7140729737
3812000000.0 -0.01206796896 0.09186198324 0.003031500615 0.002281011548 0.002960286802 0.002493673237 0.3963507414 0.6913805874
3813000000.0 -0.008904971182 0.1007022582 0.003124008887 0.002144488739 0.003142561764 0.002223374089 0.4445361793 0.6651526412
3814000000.0 -0.00437476486 0.1094847336 0.00322992471 0.001839968492 0.003203585278 0.002016436076 0.489944011 0.6358242454
3815000000.0 0.001610695384 0.1179843584 0.003344954457 0.001563334488 0.003365103621 0.001719167922 0.5331795216 0.6026745624
3816000000.0 0.009137210436 0.1258497661 0.003318465082 0.00128133921 0.003407308366 0.001518238685 0.5738357306 0.5672262631
3817000000.0 0.01771843247 0.1329439846 0.00344004971 0.001147857867 0.003530402435 0.001327696489 0.6116316915 0.5285529789
3818000000.0 0.02773245424 0.1389413906 0.003499238752 0.0008077104576 0.003604110796 0.001033631968 0.6466427445 0.4870746527
3819000000.0 0.03844166175 0.1439835347 0.003456886392 0.0006394702941 0.003600286786 0.0006956283469 0.6783628464 0.4433650791
3820000000.0 0.05008100718 0.1475949676 0.003579938551 0.000312625576 0.003683978692 0.000442627148 0.7069301605 0.3970700087
3821000000.0 0.06194857508 0.1502255484 0.003548039589 9.418860282e-05 0.003705518087 0.0002195154084 0.7317710519 0.3491165626
3822000000.0 0.07457257807 0.151649768 0.003503210843 -0.0001789939852 0.003694077255 -6.378379476e-05 0.7536005378 0.2990051488
3823000000.0 0.08797182143 0.1516439327 0.003499495797 -0.0003686880227 0.003645663382 -0.0003587195824 0.7714020014 0.2472183584
3824000000.0 0.1012189984 0.1503677215 0.003471573116 -0.0006832376821 0.003620872041 -0.0005832500756 0.7855598927 0.1936164822
3825000000.0 0.1145821884 0.1477582365 0.003529879963 -0.0008283998468 0.003567441832 -0.0008686225628 0.7956687212 0.13825512
3826000000.0 0.1281642616 0.1436891675 0.003459188621 -0.001150002237 0.003538922872 -0.001118492917 0.8015437722 0.08225319721
3827000000.0 0.1414067149 0.1383706326 0.003280947683 -0.001458491082 0.003473502351 -0.001389116747 0.8034080267 0.02584094533
3828000000.0 0.1545720994 0.1316471526 0.003295959206 -0.001626780024 0.003352158703 -0.001625336474 0.8009174466 -0.03232400339
3829000000.0 0.1673175097 0.1232003107 0.003154221922 -0.001877331524 0.003295895876 -0.001905679121 0.793838799 -0.0899886604
3830000000.0 0.1791691929 0.1136707003 0.002997173229 -0.002154177288 0.003081810661 -0.002131513786 0.781738162 -0.1480348695
3831000000.0 0.1902114898 0.102245431 0.002847906668 -0.002395527437 0.002949153772 -0.002365745604 0.7648961544 -0.2055088507
3832000000.0 0.2000954747 0.08999802672 0.002758530434 -0.002644819673 0.002758251503 -0.002633342752 0.7431893349 -0.2623509886
3833000000.0 0.2089598775 0.07638973726 0.002530756872 -0.002863306552 0.002612146549 -0.002885429654 0.7160943151 -0.3181181153
3834000000.0 0.2160578668 0.06204265416 0.002278144704 -0.003053217195 0.002425142098 -0.003058750648 0.6840945482 -0.3724078908
3835000000.0 0.2220684141 0.04670483438 0.002086256631 -0.003262099111 0.002187110716 -0.003238832345 0.6469355822 -0.4240221586
3836000000.0 0.2265134156 0.03096582967 0.001769072143 -0.003469048534 0.001931924955 -0.003420762718 0.6045130491 -0.4736921957
3837000000.0 0.2293101847 0.01466205498 0.001571033965 -0.003697535489 0.001685134368 -0.003624004778 0.5569247603 -0.5199106379
3838000000.0 0.2304622084 -0.001742548391 0.00127529481 -0.003825461725 0.001412109123 -0.003844634863 0.5046840906 -0.5621678164
3839000000.0 0.2299609333 -0.01844677943 0.0009546540678 -0.004038871266 0.001056433073 -0.00394601794 0.4474564195 -0.6003589542
3840000000.0 0.2277591825 -0.03491339508 0.0006195995957 -0.004118095618 0.0007460373454 -0.004038129933 0.3861488998 -0.6333563277
3841000000.0 0.223953411 -0.05123642862 0.000320295163 -0.004238531459 0.0004591956385 -0.004179005977 0.3207809925 -0.6608943569
3842000000.0 0.2184332907 -0.06687812103 -0.0001428847318 -0.004233073443 3.509797898e-05 -0.004235369619 0.2516963184 -0.6821449695
3843000000.0 0.2114535421 -0.08170507721 -0.0004128309665 -0.004274189007 -0.0003076906432 -0.004222424235 0.1797571182 -0.6970004777
3844000000.0 0.2030245066 -0.09580349371 -0.0008386906702 -0.004255210515 -0.0006439415738 -0.004169857595 0.1054631919 -0.7046206184
3845000000.0 0.1931839585 -0.108890063 -0.001243819483 -0.004194771871 -0.001084938413 -0.004210468847 0.029865833 -0.7045973896
3846000000.0 0.1820516735 -0.1206463183 -0.001704932307 -0.004116072319 -0.001480078674 -0.004094563425 -0.04622121155 -0.6965872611
3847000000.0 0.1698213816 -0.1310609799 -0.002117487602 -0.003894892521 -0.001833685907 -0.004021396395 -0.1222164407 -0.6803139473
3848000000.0 0.1567331105 -0.1398877664 -0.002458725823 -0.003748408984 -0.002282048808 -0.0038120877 -0.1970886588 -0.6559706876
3849000000.0 0.1428425461 -0.1471287574 -0.002781601157 -0.00345647498 -0.002640621969 -0.003595706774 -0.2689855397 -0.6233124344
3850000000.0 0.1285793632 -0.1526697964 -0.003134963801 -0.003211017465 -0.002951803384 -0.003289686283 -0.3377770185 -0.5827445351
3851000000.0 0.1141562685 -0.1563455915 -0.003520482453 -0.00283221947 -0.003273840994 -0.002995966701 -0.4019110501 -0.5347419425
3852000000.0 0.09964089841 -0.1584187247 -0.00373556884 -0.002468298888 -0.003505138448 -0.002693820745 -0.460639149 -0.4798366018
3853000000.0 0.08548381925 -0.1586034775 -0.003895208705 -0.00216109585 -0.003686824115 -0.002354610711 -0.5129147172 -0.4190841649
3854000000.0 0.07170284539 -0.1573108969 -0.00408424018 -0.001804215251 -0.003931754269 -0.001965167932 -0.5583378673 -0.3528568921
3855000000.0 0.05859706551 -0.1546123542 -0.004198553972 -0.001302938908 -0.004115137737 -0.001636746689 -0.5960655808 -0.2820267271
3856000000.0 0.04624676704 -0.1503529225 -0.004235558212 -0.001014357898 -0.004222015385 -0.001245714724 -0.6258477569 -0.20806139
3857000000.0 0.03483822569 -0.1447983599 -0.004362070002 -0.0005231566611 -0.004212556873 -0.0008491192129 -0.6474010944 -0.1315784241
3858000000.0 0.02450888418 -0.1380718874 -0.004254212603 -0.000103595783 -0.004278460983 -0.0004640656407 -0.6601586938 -0.05369105866
3859000000.0 0.01522693317 -0.1302958307 -0.004280487075 0.0002152220113 -0.004244962707 -6.149084948e-05 -0.6646698117 0.02409796354
3860000000.0 0.007542370819 -0.1216375432 -0.004133131355 0.0005377345951 -0.004225303885 0.0002955200616 -0.6607621312 0.1011623445
3861000000.0 0.001179473125 -0.1123123414 -0.004080201499 0.0009287745925 -0.004149863031 0.0007174878265 -0.6492102742 0.1766485824
3862000000.0 -0.003460617503 -0.1024718468 -0.003855273593 0.00130460225 -0.004021642264 0.001043442753 -0.6302732229 0.2494226384
3863000000.0 -0.006782868411 -0.09236857131 -0.003755292855 0.00159445731 -0.003873316338 0.001387935597 -0.6043920517 0.3187618578
3864000000.0 -0.008292791434 -0.08228680339 -0.003537594108 0.00189218903 -0.003676325548 0.001660821377 -0.5716548562 0.384649375
3865000000.0 -0.008358472027 -0.07226703425 -0.003354615299 0.002172277542 -0.003578811418 0.001955470536 -0.5337230563 0.4455398834
3866000000.0 -0.006837189198 -0.06264195861 -0.003097935347 0.00241602771 -0.003341282485 0.002200352261 -0.4909142256 0.5016572614
3867000000.0 -0.003814613679 -0.05356613123 -0.002818575362 0.002590769203 -0.003105819691 0.002416590927 -0.4431388378 0.5526068388
3868000000.0 0.0005611940869 -0.04516561986 -0.0026432944 0.002794814296 -0.00292923185 0.002666300628 -0.392072469 0.5980308115
3869000000.0 0.006282642484 -0.03773451384 -0.002397708595 0.002916185884 -0.002671981463 0.002846298274 -0.3381524384 0.6375795405
3870000000.0 0.01314944308 -0.03144629274 -0.002161992714 0.003136747982 -0.002353189979 0.003062044038 -0.2816432118 0.6717202674
3871000000.0 0.02105179802 -0.02658563088 -0.00182970555 0.003309556749 -0.002160676522 0.003215964418 -0.223477006 0.700186928
3872000000.0 0.02948094904 -0.02302621328 -0.001628233935 0.003281321842 -0.001857020892 0.003301589284 -0.1636053324 0.7230745325
3873000000.0 0.03870178387 -0.02079550527 -0.001331602456 0.003412223421 -0.001584387966 0.003479613224 -0.1033023298 0.7404618052
3874000000.0 0.0483199507 -0.01994562095 -0.001071602106 0.003524326719 -0.001303509111 0.003615285968 -0.04238859564 0.7524566721
3875000000.0 0.05835901201 -0.02086948764 -0.0008420771337 0.003597528674 -0.001031749416 0.003635064 0.01787785441 0.7592670776
3876000000.0 0.06844485551 -0.02339053529 -0.0005264231586 0.003583667334 -0.0007274245727 0.003638003254 0.07798562199 0.760956546
3877000000.0 0.07818151265 -0.027564749 -0.0002381814265 0.003589973319 -0.0003724200651 0.003653372405 0.1373141557 0.7579241262
3878000000.0 0.08775929362 -0.0333848879 7.677078247e-05 0.003568975488 -0.0001371828112 0.003701021895 0.1951275468 0.75026111
3879000000.0 0.09671242535 -0.04091576167 0.0002520350681 0.003541491693 0.000164387704 0.003663573647 0.2516497672 0.7382307068
3880000000.0 0.1047951803 -0.04994984582 0.0005736342864 0.003414295148 0.0004142903199 0.003609990235 0.3069685698 0.7216750221
3881000000.0 0.1117887348 -0.0605601511 0.0008144365274 0.003424406517 0.0006093186676 0.003547043772 0.3598182797 0.7012855938
3882000000.0 0.1175255328 -0.07234736594 0.001084856223 0.003364313161 0.0009456084808 0.003480143379 0.4109524786 0.6766811027
3883000000.0 0.1217582673 -0.08556516188 0.001243739272 0.003264266299 0.001140632783 0.003440403147 0.4597634375 0.6489171691
3884000000.0 0.1243292466 -0.09958045802 0.001507130568 0.003166351467 0.00141737028 0.003308105748 0.5057405829 0.617426228
3885000000.0 0.1250869781 -0.1144260224 0.001689437544 0.00301440456 0.00156798237 0.003261363832 0.5488059521 0.5833245958
3886000000.0 0.1240546629 -0.1296237551 0.001885557664 0.002984765219 0.001867322251 0.003146439558 0.5895002484 0.5454519069
3887000000.0 0.120948635 -0.1451548388 0.002071887255 0.0027608776 0.002030225936 0.002975533716 0.6271163225 0.5050159906
3888000000.0 0.1157736406 -0.160585468 0.002337675774 0.002672428265 0.002272055252 0.002818986308 0.6616509557 0.4620301871
3889000000.0 0.1087510362 -0.1758111259 0.002472736873 0.002512007719 0.002406642307 0.002616422251 0.6924306154 0.4165105048
3890000000.0 0.09971045703 -0.190483515 0.002720171819 0.002233252395 0.002608991694 0.002452180488 0.7199408412 0.368553042
3891000000.0 0.0886689499 -0.2044706951 0.002778556664 0.00221677497 0.002816682681 0.002273764461 0.7436659932 0.3190528314
3892000000.0 0.07568763942 -0.217300022 0.002986396197 0.002018332481 0.00301673566 0.002101064427 0.763727963 0.2673969198
3893000000.0 0.06110543758 -0.2287001704 0.003116131527 0.001785401022 0.003181452863 0.00190212694 0.7802410126 0.214036171
3894000000.0 0.04525761306 -0.2385010584 0.00328281126 0.001552003319 0.003348376369 0.001729793381 0.7923708558 0.1594197687
3895000000.0 0.02812419645 -0.2466419485 0.003447989933 0.001309174579 0.003423345508 0.001460062689 0.8005305529 0.1034835184
3896000000.0 0.01017002948 -0.2530649342 0.00351000973 0.001097465167 0.003586755367 0.001289990847 0.8044187427 0.0466924907
3897000000.0 -0.008762021549 -0.25756167 0.00363212009 0.0007907993277 0.003704059869 0.0009702294483 0.8037804961 -0.01109262717
3898000000.0 -0.02816395834 -0.2602054877 0.003718283493 0.0006319173262 0.003825318767 0.0006819820264 0.7986590266 -0.06865699731
3899000000.0 -0.04810002074 -0.2607697649 0.0038357866 0.0003033830435 0.00389625458 0.0003614217567 0.7887271047 -0.1263729475
3900000000.0 -0.06795115769 -0.2592893205 0.003894355148 -1.09974053e-06 0.004000887275 8.469953173e-05 0.7739662528 -0.1841791522
3901000000.0 -0.08769013733 -0.2558285545 0.003956671804 -0.0002971087233 0.004019874614 -0.0002030506876 0.7544298172 -0.2416716637
3902000000.0 -0.1071060225 -0.250387448 0.003983052447 -0.0006296283682 0.004086731002 -0.0004884626251 0.7298291326 -0.2971577671
3903000000.0 -0.1260159761 -0.2430288538 0.004036928993 -0.0008985514869 0.004097360186 -0.0008997402037 0.7000278831 -0.3527674993
3904000000.0 -0.1441989243 -0.2338358374 0.003962830175 -0.001290542539 0.00408448698 -0.00124490133 0.6652680039 -0.4052494527
3905000000.0 -0.1614242643 -0.2227808001 0.003907552455 -0.001626080833 0.004044953734 -0.001593743102 0.6254880428 -0.4555437933
3906000000.0 -0.1775840521 -0.2100400192 0.003826625645 -0.002060061553 0.003882933408 -0.001920233946 0.5805161595 -0.5030275145
3907000000.0 -0.1921648979 -0.1956950071 0.003690183861 -0.002340403153 0.003842053935 -0.002221379429 0.5309303403 -0.5469079042
3908000000.0 -0.2053542733 -0.1799130089 0.003565393621 -0.00266998657 0.003632955719 -0.002572867787 0.4767540395 -0.5867950612
3909000000.0 -0.2169971913 -0.1628752501 0.003350059735 -0.003028908279 0.003456671024 -0.0029402941 0.4181393683 -0.6218412664
3910000000.0 -0.2268557101 -0.1450786801 0.003088159021 -0.003324402263 0.003220816376 -0.003338532057 0.3548947573 -0.652259188
3911000000.0 -0.2348189503 -0.1262640617 0.002884073183 -0.003698656335 0.002962636529 -0.003615707625 0.288629055 -0.6765472784
3912000000.0 -0.2409075946 -0.1068131744 0.002532419749 -0.003955862951 0.002681297949 -0.003891670378 0.2189897448 -0.6946114458
3913000000.0 -0.2450355142 -0.08699243747 0.002221816918 -0.004240093753 0.002377137775 -0.004112338647 0.1462956518 -0.7060306266
3914000000.0 -0.2470758557 -0.06699479704 0.00182850915 -0.004507898819 0.002037936356 -0.004394700285 0.07208524644 -0.7100558621
3915000000.0 -0.2470785975 -0.04697003282 0.001493957476 -0.004666274413 0.00163106923 -0.004634484649 -0.002701409161 -0.7066298021
3916000000.0 -0.2449658811 -0.02711276028 0.00108863879 -0.004902579356 0.001250781701 -0.004684996791 -0.07862041891 -0.6952543346
3917000000.0 -0.2409462184 -0.007835918007 0.0005812877207 -0.005055584479 0.0008355613099 -0.004928818904 -0.1530503929 -0.6757966437
3918000000.0 -0.2346972525 0.01092154328 0.000179919225 -0.005099108908 0.0002902330598 -0.005023697391 -0.225963667 -0.6484671124
3919000000.0 -0.226874724 0.02862772773 -0.0003997242893 -0.005111295264 -8.694328426e-05 -0.005119579844 -0.2962701321 -0.6131229063
3920000000.0 -0.2171903551 0.04505092192 -0.0008232338005 -0.005124036688 -0.0006328888703 -0.005142857786 -0.363067776 -0.570038223
3921000000.0 -0.2058381885 0.06033259303 -0.001355051761 -0.005042334087 -0.001109779696 -0.005071724299 -0.4253396988 -0.5194853272
3922000000.0 -0.1930061877 0.07401460595 -0.0017859824 -0.00501777092 -0.001584107289 -0.004965534434 -0.4816502929 -0.462573968
3923000000.0 -0.1789818704 0.08602026212 -0.002283013659 -0.004749116022 -0.002008311218 -0.00486144051 -0.5312273502 -0.4002351576
3924000000.0 -0.1637846678 0.09630376027 -0.002757924842 -0.004560649395 -0.002465999452 -0.004651553929 -0.5742265582 -0.3324886759
3925000000.0 -0.1475759447 0.1045748118 -0.003083904041 -0.004339803476 -0.00292321085 -0.004416874144 -0.6093724966 -0.2605218441
3926000000.0 -0.1307837367 0.1105908776 -0.003551890142 -0.003984798677 -0.003279698081 -0.004212038126 -0.6366686225 -0.1847013009
3927000000.0 -0.1137124375 0.1146387565 -0.003914789762 -0.00370590575 -0.003690513084 -0.00386728649 -0.6553009152 -0.1072642431
3928000000.0 -0.09640908986 0.1164134497 -0.004184339195 -0.003294018097 -0.004093845841 -0.003500262974 -0.6655554175 -0.02868564294
3929000000.0 -0.07925830036 0.116013447 -0.004620435648 -0.002889282303 -0.004330471158 -0.003132959129 -0.6674740911 0.04995729178
3930000000.0 -0.06260143965 0.1133059673 -0.004838966299 -0.002501448151 -0.004694172181 -0.002669835696 -0.6608429551 0.1277406696
3931000000.0 -0.04655391723 0.1085140016 -0.004980092403 -0.002012436278 -0.004913244862 -0.002244497882 -0.6463715434 0.2030638467
3932000000.0 -0.03157538176 0.1014306036 -0.0050553279 -0.001514842268 -0.005097028334 -0.001870788052 -0.6243818998 0.275992952
3933000000.0 -0.01807114854 0.09241556736 -0.005243100226 -0.001031859429 -0.005129039288 -0.001364014577 -0.5949957371 0.3456621734
3934000000.0 -0.006234251894 0.0817850996 -0.005298066884 -0.0005696170847 -0.005287507549 -0.0009850945789 -0.5592001081 0.410960234
3935000000.0 0.00362091139 0.06954947235 -0.005158971995 -0.0002129419299 -0.005311331246 -0.0004563283583 -0.5184295774 0.4711914137
3936000000.0 0.01155153476 0.05621379149 -0.005258117802 0.0002853856713 -0.005379354581 -1.293168498e-05 -0.4721438885 0.5264678442
3937000000.0 0.01724421047 0.0419995799 -0.005163401831 0.0007560754311 -0.00521896733 0.0004229686456 -0.421179384 0.5761591803
3938000000.0 0.0207712315 0.02721782924 -0.005098353606 0.001162782894 -0.005185923073 0.0008863089606 -0.3669000268 0.6201717073
3939000000.0 0.02186191082 0.01220131183 -0.005019044504 0.001531920163 -0.005104532465 0.001355905319 -0.3098315001 0.6583442009
3940000000.0 0.02067482471 -0.002891965955 -0.004808302503 0.001999537228 -0.004948341753 0.001755545964 -0.2501037717 0.6906347718
3941000000.0 0.01701639406 -0.01768049064 -0.004637406208 0.00235946523 -0.004865094554 0.002115501789 -0.1889757067 0.7168476983
3942000000.0 0.01109372918 -0.03175739175 -0.004417208023 0.002781525487 -0.004640885629 0.002523894422 -0.1268184185 0.7370002387
3943000000.0 0.002832650905 -0.04493762918 -0.004252827726 0.003072315129 -0.004443001933 0.002950835973 -0.06390234083 0.7514083981
3944000000.0 -0.007310049608 -0.05672459631 -0.003924413119 0.003424680559 -0.004194458481 0.003300005803 -0.001473647775 0.7601894402
3945000000.0 -0.01937339641 -0.06702361324 -0.003628209466 0.003715111874 -0.003851442831 0.003637123853 0.06104527414 0.7635306322
3946000000.0 -0.03318677843 -0.07560110691 -0.003414265811 0.004143920261 -0.003652001498 0.003903056495 0.1230910569 0.761560933
3947000000.0 -0.04848526046 -0.0820134366 -0.00297020073 0.004311488476 -0.003213919001 0.004257909022 0.1838401556 0.7547224559
3948000000.0 -0.06483723223 -0.08606512454 -0.002622810192 0.004570869729 -0.002858547959 0.004602173809 0.2426868677 0.7427925408
3949000000.0 -0.0819818154 -0.08773610494 -0.002223326825 0.004780057352 -0.002468156628 0.004785926547 0.2997705042 0.7264675722
3950000000.0 -0.09958358854 -0.08687297013 -0.001761722728 0.004939534701 -0.00201961631 0.004932689015 0.3547491431 0.7058697034
3951000000.0 -0.1172960103 -0.08356701439 -0.001401444781 0.005094701424 -0.001651617931 0.005140224937 0.4072158337 0.6811141339
3952000000.0 -0.1347751468 -0.07766441916 -0.0009532034746 0.005168934818 -0.001199569786 0.005296391901 0.4567945302 0.6527511198
