!Created with skrf (http://scikit-rf.org).
# Hz S RI R 50.0 
!freq ReS11 ImS11 ReS21 ImS21 ReS12 ImS12 ReS22 ImS22
3800000000.0 0.0336708501 0.06087392526 -0.001035387046 0.001353563508 -0.001090126811 0.001364327967 -0.2903271019 0.6775049287
3801000000.0 0.03017953411 0.05750457459 -0.0009367754683 0.001393284532 -0.0009904511971 0.001375799067 -0.2317811698 0.7067734351
3802000000.0 0.02635109983 0.05514717688 -0.000805289601 0.001450136537 -0.0008928669267 0.001411678502 -0.1724180579 0.7303949749
3803000000.0 0.02226665057 0.0536856065 -0.0007475395105 0.001478776336 -0.0007449581171 0.001522345701 -0.1124203056 0.74810399
3804000000.0 0.01800160855 0.05334519035 -0.0006045912742 0.001562864869 -0.0007073907764 0.001491970499 -0.05212339386 0.7605696002
3805000000.0 0.0137620233 0.05389791714 -0.0005793040036 0.001553669688 -0.0005803687964 0.001614900306 0.00770762004 0.7680025945
3806000000.0 0.009722730145 0.05538834863 -0.0004726850893 0.00162601599 -0.0005156199331 0.001650575898 0.06753169 0.7702091155
3807000000.0 0.005789664108 0.05795808281 -0.0003672267485 0.001668735291 -0.0004912563018 0.001635747147 0.1262095869 0.7676394591
3808000000.0 0.002336709062 0.06138549872 -0.0002716636809 0.001656442182 -0.0002591539233 0.00168484624 0.1829198003 0.7607336761
3809000000.0 -0.0006360035622 0.06595857732 -0.0001250424684 0.001645552111 -0.000210225 0.001705379225 0.2392500639 0.7491922394
3810000000.0 -0.002784830285 0.07133656494 2.616961638e-06 0.001710139215 -0.000107144333 0.001769040595 0.2932559252 0.7339712945
3811000000.0 -0.003906363621 0.07758487563 8.103565779e-05 0.00173899252 1.54028512e-05 0.001737800427 0.3456750214 0.7149790064
3812000000.0 -0.004005980678 0.08447667503 0.0001780583407 0.001645173295 0.0001379291207 0.001766625792 0.3965036571 0.6919752997
3813000000.0 -0.002996117575 0.09161574957 0.0003051010135 0.001699241693 0.0001767356298 0.00179269712 0.4444295168 0.6658323374
3814000000.0 -0.0007308860659 0.09908923371 0.0005309741828 0.001739411382 0.000375835225 0.001795145217 0.4904318452 0.6362466009
3815000000.0 0.002660621889 0.1066138413 0.0005328531843 0.001690178295 0.0004969889414 0.001763813081 0.5339419842 0.6033528647
3816000000.0 0.007391365245 0.1140057774 0.00072809431 0.001670792699 0.0006539261085 0.001726053422 0.5744421482 0.5672297313
3817000000.0 0.01351715811 0.1211347315 0.0008762711077 0.001707105432 0.0007865250809 0.001747183851 0.6124920845 0.5287559881
3818000000.0 0.02071064897 0.1279501441 0.001016137539 0.001620066352 0.0008487803861 0.001659919508 0.6472115517 0.487288062
3819000000.0 0.0291742608 0.1340330393 0.00104774558 0.001517302124 0.001058266731 0.001699161367 0.6788542271 0.4437782505
3820000000.0 0.03883518651 0.1391364467 0.001190614421 0.001533567091 0.001201113453 0.001561422832 0.7074353099 0.3977266297
3821000000.0 0.04946150631 0.1431830542 0.001323566539 0.001459953375 0.00130005891 0.001547194552 0.7326404452 0.3491423866
3822000000.0 0.06097303703 0.1459659262 0.001425527153 0.00134181336 0.001441086759 0.001405540155 0.754181385 0.2989229612
3823000000.0 0.07293345779 0.1474447534 0.001500380924 0.001278405078 0.001591022825 0.001358811045 0.7721773386 0.246792662
3824000000.0 0.08521857113 0.1476803705 0.001651994418 0.001153705176 0.001650133869 0.001236500102 0.7863755226 0.1929713129
3825000000.0 0.09789794683 0.1465424335 0.001722653746 0.0009990982944 0.001786839915 0.001154405298 0.7961137295 0.1390809375
3826000000.0 0.1105965152 0.1441795445 0.001893998124 0.0009399970877 0.001914071385 0.001028227736 0.8022571802 0.08290222707
3827000000.0 0.1231734902 0.1405235497 0.001958921086 0.0007644844009 0.001952246879 0.0008114522789 0.8040192127 0.02607017499
3828000000.0 0.1357960254 0.1354892246 0.002031183569 0.00060377107 0.002097937278 0.0007570096059 0.8016683459 -0.03180571132
3829000000.0 0.1479912251 0.1291435857 0.002117133699 0.0004603544076 0.002113235882 0.0005562438746 0.794588387 -0.09005033284
3830000000.0 0.1597653776 0.121450631 0.002183380304 0.000285504153 0.002231313847 0.0003704154515 0.7825008631 -0.1480459304
3831000000.0 0.1708970964 0.1122873363 0.002240665024 0.0002076848177 0.002277508844 0.0001894534071 0.7657533288 -0.2058170675
3832000000.0 0.1809938997 0.1021311609 0.002273482736 -1.737516504e-05 0.002341387095 -1.034487696e-06 0.7439392805 -0.2626296014
3833000000.0 0.1901589483 0.09102000614 0.002289147349 -0.000148891515 0.002289697062 -0.0001111606398 0.7170528769 -0.3178024088
3834000000.0 0.1984233856 0.07899124842 0.002312365687 -0.0003792822536 0.002362547442 -0.0002921779815 0.6848967075 -0.3723584034
3835000000.0 0.2053670287 0.06611599937 0.002286617877 -0.0005173055106 0.002340012696 -0.0005646756617 0.647713244 -0.4245006356
3836000000.0 0.2115994096 0.05215132829 0.00232709921 -0.0007081088843 0.002320356667 -0.0007277411642 0.6051999927 -0.4740712893
3837000000.0 0.2162711918 0.03788452978 0.002341392916 -0.0009833707009 0.002284499817 -0.0008370691212 0.5577276349 -0.5199416938
3838000000.0 0.2194506377 0.02310081089 0.002278399887 -0.0010900856 0.002308623865 -0.001018010546 0.505336225 -0.5627322401
3839000000.0 0.2214570194 0.007949115422 0.002151896479 -0.001352853491 0.002243459923 -0.001322503434 0.4479918182 -0.6010231021
3840000000.0 0.2218541652 -0.007492441099 0.002069723094 -0.001536468742 0.002210822422 -0.001435573446 0.3869075477 -0.6337654294
3841000000.0 0.2208124399 -0.02298165955 0.002080999082 -0.001810662681 0.002104288433 -0.001728004077 0.3213377595 -0.6615797628
3842000000.0 0.2179808915 -0.03841732976 0.001965257572 -0.001996393083 0.00202922686 -0.00194239954 0.2522203922 -0.6829928656
3843000000.0 0.2138450593 -0.05336169313 0.001766738016 -0.002237528097 0.001874457463 -0.002126662526 0.1803338081 -0.6979828424
3844000000.0 0.2081135064 -0.0678067777 0.001637476613 -0.00244685635 0.001652410487 -0.002359339735 0.106006369 -0.7054788386
3845000000.0 0.2007153779 -0.08162779012 0.001410342287 -0.002595213475 0.001476900419 -0.00258988142 0.03006707877 -0.7055228945
3846000000.0 0.1921177506 -0.09449147861 0.00117913459 -0.002763546305 0.001255477779 -0.002750385553 -0.04624929279 -0.6975245838
3847000000.0 0.1820731014 -0.1060804029 0.0009445729083 -0.003009020817 0.001009586733 -0.002885177732 -0.1221003085 -0.6812388372
3848000000.0 0.1711215973 -0.1163597035 0.0006029723445 -0.003079995513 0.0007203530986 -0.002988691907 -0.1969504058 -0.6567704802
3849000000.0 0.1590541601 -0.1252928876 0.0003332189226 -0.003139449283 0.0004899109481 -0.003086929908 -0.2690533698 -0.6242302447
3850000000.0 0.1462877244 -0.1325124471 1.326221445e-05 -0.003227955662 0.0001073738313 -0.003200684441 -0.337946862 -0.5838867253
3851000000.0 0.1330291182 -0.1381604412 -0.0002781733056 -0.003309173277 -0.0001691549696 -0.003226981964 -0.4021400511 -0.5357981589
3852000000.0 0.1197553948 -0.1421295611 -0.0006680262741 -0.00325995381 -0.0004906170652 -0.003253019415 -0.4606431723 -0.4811776546
3853000000.0 0.1063200235 -0.1444048945 -0.0009830046911 -0.003143996 -0.0007642583223 -0.003264007159 -0.5132862329 -0.4199373433
3854000000.0 0.09327649325 -0.1449028717 -0.001273352536 -0.003044364043 -0.001134437742 -0.003093278268 -0.5585131049 -0.3540631857
3855000000.0 0.08072363585 -0.1441134008 -0.001560867298 -0.002976248739 -0.001410469413 -0.003043140518 -0.596627295 -0.2829395479
3856000000.0 0.06872788817 -0.1418914927 -0.001946956036 -0.002816032385 -0.001693764818 -0.002896272345 -0.62659657 -0.2087360659
3857000000.0 0.05748919025 -0.1384575157 -0.00215953798 -0.002645220375 -0.002036935417 -0.002719474491 -0.647872448 -0.1325267543
3858000000.0 0.04713949934 -0.1338113928 -0.002461641096 -0.002482078271 -0.002224924276 -0.002462439006 -0.6607991457 -0.05456168098
3859000000.0 0.03772208095 -0.1281729561 -0.002670214511 -0.002146578394 -0.002470433246 -0.002388311783 -0.6654321551 0.02371918572
3860000000.0 0.02942136861 -0.1215433589 -0.002800475108 -0.001918263151 -0.002749847714 -0.002093988704 -0.6616327167 0.1010274732
3861000000.0 0.02230054885 -0.1142346059 -0.003032555804 -0.001648328383 -0.002965413732 -0.001787054702 -0.6499767303 0.1765748487
3862000000.0 0.01645872556 -0.1061759688 -0.003218591446 -0.001254238072 -0.003113035811 -0.00150858541 -0.6310071349 0.2490924291
3863000000.0 0.01206340361 -0.09763263462 -0.003264996456 -0.000988686108 -0.003211448435 -0.001181948464 -0.6051487923 0.3187238424
3864000000.0 0.009200518951 -0.0889947323 -0.003329583211 -0.0006261673989 -0.003339623567 -0.0008602254093 -0.5729108453 0.3843623461
3865000000.0 0.007631275337 -0.08022841544 -0.003391240025 -0.0003818475816 -0.003284597304 -0.0005912640481 -0.5346029401 0.4454798067
3866000000.0 0.007469162811 -0.071707623 -0.003346864367 -2.296989987e-05 -0.00341225951 -0.0002547284239 -0.4912975132 0.5018818037
3867000000.0 0.008552337997 -0.06331767615 -0.003366005374 0.0002221093309 -0.003366566962 0.000120115903 -0.4438236058 0.5527621054
3868000000.0 0.01102494262 -0.0553542788 -0.003286391497 0.0005559397396 -0.003348677885 0.0003153115103 -0.3928649127 0.5980339713
3869000000.0 0.01490778755 -0.04798031219 -0.003147418378 0.0008150454378 -0.003315500449 0.0006841848372 -0.3391942382 0.6377506214
3870000000.0 0.01992504671 -0.04140578142 -0.003105578013 0.001097530359 -0.003159988439 0.0008756826865 -0.282004565 0.6722615866
3871000000.0 0.02627984062 -0.03593002347 -0.002953868126 0.001310146181 -0.003167503979 0.001163750305 -0.2234793901 0.7008691794
3872000000.0 0.03363275528 -0.03157518004 -0.002845081734 0.001512653194 -0.002964258427 0.001427501789 -0.1642963886 0.7236232928
3873000000.0 0.04167901725 -0.02857316934 -0.002661422361 0.001808130415 -0.002798410365 0.001628160477 -0.1033754423 0.7411045918
3874000000.0 0.05043874681 -0.02702325318 -0.00248509692 0.001960477093 -0.002722737147 0.001893312088 -0.04304986447 0.7530214129
3875000000.0 0.05958668888 -0.02709136051 -0.002288199961 0.002192584332 -0.002475673566 0.002115758369 0.01762418449 0.7598118778
3876000000.0 0.06884127855 -0.02869835809 -0.002085995395 0.002353136661 -0.002338178689 0.00235177204 0.0778541714 0.7616394222
3877000000.0 0.07822138071 -0.03190357967 -0.001925848424 0.002452410292 -0.002062053187 0.002423136961 0.1375560462 0.7586795291
3878000000.0 0.08725327253 -0.03664681151 -0.001727133989 0.002627851907 -0.001864683465 0.002699165605 0.1954942197 0.7506853802
3879000000.0 0.09579267353 -0.04302722048 -0.001528276829 0.002824859926 -0.001679526758 0.002813137602 0.2519397438 0.7385267689
3880000000.0 0.1037222445 -0.05083116558 -0.001245260239 0.002949004062 -0.001435290324 0.002897675615 0.3063544035 0.7222147415
3881000000.0 0.1107187867 -0.06028329073 -0.0009761062101 0.003037159331 -0.001191519434 0.003020441625 0.3600459099 0.7017303492
3882000000.0 0.1167441234 -0.07084706347 -0.0007506384281 0.00304836873 -0.0009745242423 0.003101052018 0.4111930132 0.6774352166
3883000000.0 0.1215088889 -0.08262036117 -0.0005708085373 0.003174691694 -0.0007510461728 0.003264133818 0.4602791071 0.6492817566
3884000000.0 0.124864243 -0.09550219833 -0.0003102697956 0.003107532393 -0.0004265177995 0.003295995295 0.5060005188 0.6179752855
3885000000.0 0.1266926527 -0.1093129645 -6.031363228e-05 0.003180392785 -8.996084944e-05 0.003263895866 0.5489438176 0.5836798997
3886000000.0 0.1266945899 -0.1238858771 0.000180168965 0.003177788807 5.487871385e-05 0.003318359377 0.5893354416 0.5461411458
3887000000.0 0.1248992607 -0.1387658699 0.0004292266676 0.003176610917 0.0003447096678 0.003247498302 0.6273235083 0.5055440634
3888000000.0 0.1212591976 -0.1539141213 0.0007308931672 0.003151738783 0.000568946416 0.003279491095 0.6614748836 0.4626164707
3889000000.0 0.1156085432 -0.1689257345 0.0009469041252 0.003076371271 0.0008697276935 0.003174070967 0.6925432086 0.4172120861
3890000000.0 0.1078877747 -0.1837735382 0.001203229651 0.003018036718 0.001141999732 0.00314078643 0.7201251984 0.3695552051
3891000000.0 0.09853521734 -0.1976476154 0.00149758067 0.002902814886 0.001347476733 0.003112606006 0.743896842 0.3196174621
3892000000.0 0.08748606592 -0.2110341073 0.001741319778 0.002823073417 0.001704747905 0.003000650089 0.7641068697 0.2680379179
3893000000.0 0.07463347167 -0.2234991881 0.001980904955 0.002626893576 0.001892952598 0.002862126566 0.7803047299 0.2146989451
3894000000.0 0.06021109223 -0.2348491711 0.002149480395 0.002541636117 0.002117237076 0.002682911698 0.7926504612 0.1602419762
3895000000.0 0.04424631968 -0.2446946567 0.00238864636 0.002371974755 0.002377644647 0.002537813038 0.8009941578 0.1042088043
3896000000.0 0.02707082406 -0.2528864894 0.00265071285 0.002201181836 0.002566721523 0.002364934888 0.8051559925 0.04685176771
3897000000.0 0.008379613981 -0.2592847955 0.00276963925 0.001974329352 0.002721253783 0.00211990159 0.8045582771 -0.01078299472
3898000000.0 -0.01080139447 -0.2637871571 0.002912082011 0.001820166828 0.002938960912 0.001857266296 0.7992027402 -0.06883771646
3899000000.0 -0.03071928583 -0.2664124513 0.003075010609 0.001554615214 0.003144885879 0.001700547524 0.7892791629 -0.1265564335
3900000000.0 -0.05114192888 -0.2668951404 0.003268603468 0.001299085096 0.003252699273 0.001499763341 0.7746449709 -0.184262852
3901000000.0 -0.07169630378 -0.2651993616 0.00338171632 0.001065107994 0.003471645061 0.001190932002 0.7550677657 -0.2412449381
3902000000.0 -0.09237123281 -0.2612282072 0.003485627472 0.0007958041388 0.003603909863 0.000909268856 0.7302946448 -0.2976880369
3903000000.0 -0.1123111695 -0.2551680775 0.00364190992 0.0005391868181 0.00373406196 0.0005685136421 0.7007232904 -0.3528372081
3904000000.0 -0.1318557709 -0.2468761413 0.003724051639 0.0001541153179 0.003694763873 0.0002221840405 0.6658105254 -0.4057085589
3905000000.0 -0.1503436714 -0.2368013784 0.003724653507 -0.0001306942722 0.003821588121 -3.075203858e-05 0.6259294748 -0.4561929178
3906000000.0 -0.1680515558 -0.2246619614 0.003760759952 -0.0004473286099 0.003823077539 -0.000315326266 0.5810778737 -0.5035082547
3907000000.0 -0.184402898 -0.2107303326 0.003839489771 -0.0008283223724 0.003807067871 -0.0006466722698 0.5313500762 -0.5473477286
3908000000.0 -0.1990962029 -0.1951866278 0.003782472573 -0.00116473157 0.003820909187 -0.0009635955794 0.4770438671 -0.5873626041
3909000000.0 -0.2122164816 -0.1781533805 0.00361725199 -0.001486314228 0.003746180795 -0.001377187087 0.4184334874 -0.6225702043
3910000000.0 -0.2234776616 -0.159622972 0.003576809075 -0.001869969885 0.003675631015 -0.001631205436 0.3557382524 -0.6525107535
3911000000.0 -0.2325881124 -0.1401602672 0.003377504181 -0.002165756654 0.00348568731 -0.002069221344 0.2891199291 -0.6770720555
3912000000.0 -0.2395555079 -0.1199253652 0.003227642737 -0.002539290115 0.003352162661 -0.002430944936 0.2194743156 -0.6951277075
3913000000.0 -0.2441835999 -0.09928973373 0.003071165411 -0.002839328954 0.003255592659 -0.002695065923 0.1470345706 -0.7065736769
3914000000.0 -0.2466106266 -0.07844925786 0.002847048687 -0.003062979784 0.003041292541 -0.003019655356 0.07240908593 -0.7107821453
3915000000.0 -0.2466803789 -0.05772050766 0.002661981154 -0.003431963036 0.00276654819 -0.003296399256 -0.002865297953 -0.7072511322
3916000000.0 -0.2447572649 -0.03735582515 0.002325008623 -0.003771200776 0.002377854893 -0.003627674654 -0.07824619859 -0.6957669672
3917000000.0 -0.2406127155 -0.01739367918 0.001972430618 -0.004012471065 0.002105095424 -0.00385026983 -0.1529062539 -0.6765144211
3918000000.0 -0.2343422025 0.001701649275 0.001563461265 -0.004170347936 0.001780014019 -0.004083248787 -0.2263314426 -0.6489705363
3919000000.0 -0.2261613458 0.01977810257 0.001099523623 -0.004393693991 0.00138332427 -0.004301625304 -0.2967513502 -0.6135025084
3920000000.0 -0.2159428447 0.03671021964 0.0008058138774 -0.004451880697 0.0009665200487 -0.004520632792 -0.3630878329 -0.5707884491
3921000000.0 -0.2040141076 0.05196537015 0.0003534249845 -0.00467314804 0.0004648992908 -0.00455614645 -0.4254173934 -0.5203062298
3922000000.0 -0.1905681789 0.06547667955 -0.0001144443813 -0.004665013403 5.532549039e-05 -0.004643909633 -0.4817066193 -0.4632120679
3923000000.0 -0.1757199615 0.07700173402 -0.000631359173 -0.004682470113 -0.0003392007202 -0.004740434699 -0.5318064094 -0.4005190146
3924000000.0 -0.1601334661 0.08634051736 -0.001078006928 -0.004648226779 -0.00085209799 -0.004701022524 -0.5746572614 -0.3328029262
3925000000.0 -0.1437841803 0.0935954952 -0.001502932748 -0.004538201261 -0.0013356196 -0.004602212925 -0.6099233031 -0.2605661069
3926000000.0 -0.1271073967 0.09854091172 -0.00199712161 -0.004395330325 -0.001815447817 -0.004472894128 -0.6371632814 -0.185210712
3927000000.0 -0.1103603393 0.1012524856 -0.002495773137 -0.004176461603 -0.002242080169 -0.004314858466 -0.6558657885 -0.1076577335
3928000000.0 -0.09387614578 0.1019389869 -0.002838854445 -0.003929015249 -0.002690069843 -0.004021948203 -0.665988028 -0.02882055587
3929000000.0 -0.07786339521 0.1004107194 -0.003301159479 -0.003591665532 -0.003080419498 -0.003732742276 -0.6679030657 0.0496944677
3930000000.0 -0.06231379882 0.09698516983 -0.00355381961 -0.003193555167 -0.003472557524 -0.003381965915 -0.6613218784 0.1275794037
3931000000.0 -0.04778013006 0.09152097774 -0.003894556081 -0.002844032599 -0.003698712913 -0.003072627354 -0.6468425393 0.2028722825
3932000000.0 -0.03431909531 0.08422997759 -0.004094960634 -0.002313672798 -0.004011093173 -0.002685711719 -0.6246581674 0.2761885738
3933000000.0 -0.02230996639 0.07519218676 -0.004285125062 -0.002000546083 -0.00430325605 -0.002256686799 -0.5952908993 0.3460290056
3934000000.0 -0.01169875544 0.06461498269 -0.004486949183 -0.00158912898 -0.004433114082 -0.001791670918 -0.5597915053 0.4112406675
3935000000.0 -0.003148755059 0.05264365073 -0.004594259895 -0.001027263817 -0.004461915698 -0.001331654377 -0.5184285641 0.4715944626
3936000000.0 0.003528413363 0.03982486711 -0.004693506751 -0.0005926161539 -0.004665794317 -0.0009783910355 -0.472089231 0.5268684565
3937000000.0 0.008086907677 0.02601377537 -0.00461825449 -0.0002501181152 -0.004663398024 -0.0004562964023 -0.4213865399 0.5766969824
3938000000.0 0.01047141384 0.01188839114 -0.004581964109 0.0001265583269 -0.004637892358 -3.133375503e-05 -0.3668776155 0.6206768434
3939000000.0 0.01051207166 -0.002717069396 -0.004549768288 0.0005908240564 -0.004582516849 0.000330180832 -0.3099963665 0.6584905317
3940000000.0 0.008158403449 -0.01724808139 -0.004410668742 0.0009468329954 -0.004554333631 0.0008085613372 -0.2506084442 0.6907584025
3941000000.0 0.003456141567 -0.03120080267 -0.004277034663 0.001386848628 -0.004489151295 0.001219063997 -0.1889413744 0.7170881527
3942000000.0 -0.003613978857 -0.04445950802 -0.004156324547 0.001710178447 -0.004265084397 0.001619744929 -0.1270633787 0.7371584359
3943000000.0 -0.0128861228 -0.05650031693 -0.003906263504 0.002142656129 -0.004069487564 0.001947437646 -0.06448175013 0.7517198264
3944000000.0 -0.02409085073 -0.06714296854 -0.003697414882 0.002432090929 -0.003834519302 0.00233180495 -0.001386453747 0.7604412767
3945000000.0 -0.03698853776 -0.07601570255 -0.003522635438 0.002749721752 -0.003665670054 0.002588525647 0.06087753549 0.7638377278
3946000000.0 -0.0512900129 -0.08307434144 -0.003166536801 0.002940135542 -0.003302250989 0.002921094419 0.122697331 0.7618435461
3947000000.0 -0.06696413457 -0.08793482043 -0.002855492756 0.003226940054 -0.003091560211 0.003190410789 0.1828027219 0.7550997551
3948000000.0 -0.08354207873 -0.0906234249 -0.002583183115 0.003449264914 -0.002762349555 0.003397483379 0.2426952571 0.7432369263
3949000000.0 -0.1009407118 -0.0907436852 -0.002283140318 0.003616916249 -0.002417870099 0.003513332456 0.299384445 0.726958803
3950000000.0 -0.1185392961 -0.08836054902 -0.001947269891 0.003766833106 -0.00212395424 0.003636017907 0.3542574048 0.7063403669
3951000000.0 -0.1360296905 -0.08330180411 -0.001655558706 0.003849057015 -0.001853709109 0.003773467615 0.4069167078 0.6815262489
