!Created with skrf (http://scikit-rf.org).
# Hz S RI R 50.0 
!freq ReS11 ImS11 ReS21 ImS21 ReS12 ImS12 ReS22 ImS22
3800000000.0 0.04083879292 0.05567352837 -0.001399221481 0.0008713784046 -0.001433837228 0.0008176355623 -0.290217489 0.6775668696
3801000000.0 0.03666190803 0.05211032991 -0.00128107809 0.001037459588 -0.001256108284 0.0009908835636 -0.2316304296 0.706827009
3802000000.0 0.03209620342 0.04969560828 -0.001107684686 0.001232745941 -0.00125564856 0.001091978629 -0.1718205214 0.7303467004
3803000000.0 0.02714589238 0.04842985064 -0.0009959550807 0.001332344371 -0.00108456309 0.001303763245 -0.1117435545 0.7481577934
3804000000.0 0.02207644843 0.04823152201 -0.0008473472553 0.001448554453 -0.0009477809072 0.00142230466 -0.05143232644 0.760625031
3805000000.0 0.01710205153 0.04916854949 -0.0006534697022 0.001535564079 -0.0007740147994 0.001563873142 0.008384509012 0.7679916942
3806000000.0 0.01263793837 0.0513615785 -0.0004859734327 0.001543109654 -0.000599837047 0.001609362778 0.06787984818 0.7701400546
3807000000.0 0.008603069931 0.05444107109 -0.0003522692132 0.001731502707 -0.0004190116015 0.001682103146 0.1261937916 0.7675453843
3808000000.0 0.005238757469 0.05850293873 -0.0001537685603 0.001685764058 -0.0002685984946 0.001734593883 0.183830142 0.7604926366
3809000000.0 0.002442533383 0.06333493941 2.190169835e-05 0.001736590173 -0.000144020858 0.001716706669 0.23985295 0.7492366284
3810000000.0 0.0003688709985 0.06892737443 0.0001908916456 0.001728673466 0.00010163353 0.001820175326 0.2937273979 0.7336356698
3811000000.0 -0.0006846567267 0.07521958449 0.0003183892404 0.001708052703 0.0003317319497 0.001752389711 0.3466851413 0.7144968652
3812000000.0 -0.0008257926675 0.08212923952 0.0005852550967 0.001690883655 0.0004771045933 0.001692040474 0.3970662653 0.6919636758
3813000000.0 0.0001908625127 0.089496025 0.0008183126338 0.001602910925 0.0007532089949 0.001723875641 0.4450322688 0.6655462081
3814000000.0 0.002512563253 0.09721835315 0.0009754679049 0.001539586927 0.000796067121 0.001580841606 0.4906535149 0.6357948525
3815000000.0 0.006185042672 0.1048790594 0.001067989389 0.001473228913 0.001015030663 0.00162371737 0.5342177153 0.6030630934
3816000000.0 0.01110533439 0.1123169314 0.001301389304 0.001340960269 0.001162016764 0.001494850265 0.5747584701 0.5670501089
3817000000.0 0.01724980399 0.1193381924 0.00133486453 0.001278272015 0.001417551073 0.001329578692 0.6126827598 0.5282777017
3818000000.0 0.02452796511 0.1258687314 0.001477546408 0.001123360475 0.00151138904 0.00122455263 0.6474425793 0.4871893078
3819000000.0 0.03307629377 0.1318912 0.001598171308 0.001032416825 0.001597974915 0.001110944198 0.679427743 0.4430370779
3820000000.0 0.04253511503 0.1370906366 0.001721256995 0.0008645049529 0.001807903638 0.0009488343494 0.7078996897 0.3968601857
3821000000.0 0.05332003906 0.1413035011 0.001887603314 0.0006667746929 0.001840368728 0.0007833160344 0.7329397798 0.3485197021
3822000000.0 0.06472141296 0.1443439699 0.001871914137 0.0004879367189 0.0019765459 0.000654305215 0.7544515133 0.2985092642
3823000000.0 0.07681564987 0.1462879752 0.00199439819 0.0003404158342 0.001994914375 0.0003965700162 0.7723945975 0.2466140429
3824000000.0 0.08959748596 0.1466596128 0.002044865629 0.0001005620943 0.002071400639 0.0002660804603 0.7864554524 0.192809321
3825000000.0 0.1029274613 0.1457842546 0.002093155636 -6.98530348e-05 0.002088628011 4.416457523e-05 0.7966487408 0.1380267034
3826000000.0 0.1162938029 0.1433632091 0.002042573877 -0.0002577243431 0.002146241255 -0.0001523735409 0.8024199605 0.081841645
3827000000.0 0.1297587603 0.1394312666 0.002081529936 -0.000424210215 0.002167423023 -0.000379651261 0.8045175076 0.02506034149
3828000000.0 0.1430020779 0.1339811633 0.002122330712 -0.0005978661356 0.002095709555 -0.0006037775893 0.8017419577 -0.03261592308
3829000000.0 0.155997172 0.1270784702 0.002025703434 -0.0008959472761 0.002124343766 -0.0008574680542 0.7946438789 -0.0907694858
3830000000.0 0.1684532017 0.1186690708 0.001956568332 -0.00107470993 0.002093563322 -0.001044895267 0.7824055552 -0.1486675335
3831000000.0 0.179889977 0.1087610228 0.001883952646 -0.001253977534 0.001994235907 -0.001243131235 0.7655313015 -0.2062995731
3832000000.0 0.1904629916 0.09743078131 0.001790147508 -0.001499063103 0.001868310734 -0.001495237695 0.7436961532 -0.2627846316
3833000000.0 0.1998698711 0.0851764742 0.00166029192 -0.001673030318 0.001751374337 -0.00167786784 0.7169482112 -0.3186091461
3834000000.0 0.2082277387 0.07194280578 0.001545794425 -0.001920013805 0.001620392315 -0.001809006557 0.6848479509 -0.372726518
3835000000.0 0.2153268158 0.05772140055 0.001322788652 -0.002057579113 0.001415664563 -0.001999197993 0.6476116776 -0.4243017416
3836000000.0 0.2211483866 0.04268792182 0.001190820592 -0.002201412804 0.001227884088 -0.002198705683 0.6049765348 -0.4744328255
3837000000.0 0.2255086452 0.02683074467 0.0009724662523 -0.002381962491 0.00108870212 -0.002339927945 0.5574900508 -0.5206994157
3838000000.0 0.2282160372 0.01051957862 0.0007580808597 -0.00244609057 0.0008602395537 -0.002463286975 0.5050739646 -0.5632298789
3839000000.0 0.2292799801 -0.006339594867 0.0006203548401 -0.002627466805 0.0005767400726 -0.002595293103 0.4479191303 -0.6013964955
3840000000.0 0.2282538116 -0.02315245719 0.0003156362218 -0.002718110569 0.0003866082407 -0.002711079782 0.3865202963 -0.6341728879
3841000000.0 0.2253773957 -0.03992301403 2.789807695e-05 -0.002822992625 0.0001135746497 -0.002813532948 0.3212606311 -0.6616325787
3842000000.0 0.2204986215 -0.05614300399 -0.0003247559944 -0.002849102719 -0.0001253433002 -0.002840744331 0.2519330084 -0.6832072696
3843000000.0 0.2140475363 -0.07149874887 -0.0005622195313 -0.002833772451 -0.0004825410142 -0.002886299044 0.1799871325 -0.6979662677
3844000000.0 0.2058839649 -0.08573307338 -0.0008483238053 -0.00278157834 -0.0007900169003 -0.002804886783 0.1058301702 -0.7055520698
3845000000.0 0.1963682026 -0.0989466425 -0.001168438816 -0.002755908528 -0.001053830842 -0.002801831579 0.03003350087 -0.7055674569
3846000000.0 0.185900569 -0.1106754179 -0.00150650763 -0.002642334672 -0.00135036651 -0.002697267104 -0.04651812464 -0.6975740209
3847000000.0 0.174322322 -0.1210607445 -0.001711666468 -0.002517997986 -0.001576223876 -0.002551114652 -0.1228206009 -0.6812919213
3848000000.0 0.1620704085 -0.1298863661 -0.002005129121 -0.002291192766 -0.001945775817 -0.002399358666 -0.1974155158 -0.6566660613
3849000000.0 0.1492617875 -0.1372669359 -0.002266571159 -0.002162899822 -0.002151073888 -0.002236566739 -0.2697834969 -0.6241071978
3850000000.0 0.1360135972 -0.1431505759 -0.002476971829 -0.001948707737 -0.002417348325 -0.002009443007 -0.3382092714 -0.583658539
3851000000.0 0.1226310283 -0.1474734856 -0.00271584955 -0.001663870877 -0.002587251365 -0.001751449425 -0.402451545 -0.5355702573
3852000000.0 0.1090755165 -0.1501625488 -0.002962208353 -0.001396141597 -0.002824827097 -0.001551844762 -0.4614123702 -0.4805174521
3853000000.0 0.09571568668 -0.1513754745 -0.0030775778 -0.001079745241 -0.002980849706 -0.001246769563 -0.5135402679 -0.4199155113
3854000000.0 0.08265955746 -0.1509985307 -0.00323030306 -0.0007935013273 -0.003151829587 -0.0009204080561 -0.5589085817 -0.3537798014
3855000000.0 0.07002057135 -0.1494465051 -0.003273189766 -0.0004152666952 -0.003256008262 -0.0006503374898 -0.5966694355 -0.2829747681
3856000000.0 0.05817040429 -0.1462961792 -0.003324651392 -9.491528908e-05 -0.003338531591 -0.0002618287108 -0.6266331673 -0.2086570085
3857000000.0 0.04701218754 -0.1419624172 -0.003359021619 0.0002204177144 -0.003414825769 3.020666736e-05 -0.6480989456 -0.131774713
3858000000.0 0.03677160665 -0.1364300089 -0.003311344888 0.0006520905881 -0.003291759407 0.0003518206067 -0.6609687805 -0.05392343202
3859000000.0 0.02749224193 -0.1298467819 -0.003259808989 0.0009215421742 -0.003309391672 0.0007334073307 -0.6654388905 0.02385861839
3860000000.0 0.0197346136 -0.122381283 -0.003152887104 0.001221360755 -0.003257120727 0.001020840602 -0.661595583 0.101497096
3861000000.0 0.01313833706 -0.114269713 -0.003026095219 0.001535754185 -0.003183110151 0.001362403971 -0.6503002644 0.1764839489
3862000000.0 0.007999213412 -0.1056733262 -0.002859193832 0.001871325891 -0.003007384948 0.001669709105 -0.631060183 0.2493876636
3863000000.0 0.004128135275 -0.09670986054 -0.00266214041 0.002113741357 -0.00283135823 0.001982470974 -0.6052773595 0.3186277027
3864000000.0 0.001797184232 -0.08756826578 -0.002416789299 0.002422505524 -0.002581218258 0.002198082861 -0.5725793242 0.3845784344
3865000000.0 0.0008398805512 -0.07830657974 -0.002186346333 0.002631867304 -0.002404078608 0.002517171437 -0.5344395638 0.4456866987
3866000000.0 0.001359541784 -0.06929403448 -0.001916444744 0.00286844722 -0.002144556958 0.002774039982 -0.4914737046 0.5018375271
3867000000.0 0.003400875488 -0.06071903425 -0.001667138655 0.003066628939 -0.001870630425 0.002919943305 -0.4436139762 0.5530495554
3868000000.0 0.006916883402 -0.05271300523 -0.00132489542 0.003146522911 -0.001558170072 0.003100015456 -0.3925617039 0.5985336634
3869000000.0 0.01173719112 -0.04557479122 -0.001036480651 0.003253620118 -0.001248756307 0.003280404257 -0.3382273614 0.6383247674
3870000000.0 0.01761855558 -0.0394490159 -0.000760017836 0.003301042132 -0.0009622711223 0.003355396446 -0.2818894386 0.6724692502
3871000000.0 0.02462205663 -0.03446048667 -0.0004763225443 0.003366439603 -0.0006637175102 0.003468418494 -0.2233339399 0.701061644
3872000000.0 0.03228232637 -0.03066145413 -9.17350917e-05 0.003349025035 -0.0002891615441 0.003417528234 -0.1638092697 0.7236819915
3873000000.0 0.04073225707 -0.0283395596 0.0001792231196 0.003356326139 -6.657877384e-05 0.003409422003 -0.1033942178 0.7411677904
3874000000.0 0.04966660216 -0.02747520898 0.0004745176702 0.003324954305 0.0003087185323 0.003428160213 -0.04212384298 0.7532323798
3875000000.0 0.05897375941 -0.02806991767 0.0008051685872 0.003302504774 0.0005918366951 0.003402915085 0.0185184218 0.75995824
3876000000.0 0.06850753725 -0.03042848427 0.001083573326 0.003174523124 0.0009516155696 0.003335064976 0.07883109152 0.7616958119
3877000000.0 0.07770840824 -0.03442969472 0.001353215193 0.003036844777 0.001167415641 0.003255843883 0.1377444714 0.7585442644
3878000000.0 0.08654326946 -0.03988533145 0.001656754874 0.00292467 0.0015552158 0.003099139081 0.1956595927 0.7509201938
3879000000.0 0.09478335083 -0.04701285519 0.001817038516 0.002804571297 0.00174457347 0.002961096121 0.2521283925 0.7387494692
3880000000.0 0.1022926793 -0.0556829799 0.00209396123 0.002581929555 0.002059780294 0.00276888255 0.30728212 0.7221846547
3881000000.0 0.1087150052 -0.0657406133 0.002280791057 0.002376915654 0.002211021725 0.00258886721 0.3608869612 0.7016334704
3882000000.0 0.1137860939 -0.07705842764 0.00248980755 0.002277789637 0.002496913541 0.00243055867 0.4116817415 0.6773894874
3883000000.0 0.1175453663 -0.08932676309 0.002663749503 0.001980161294 0.002707265085 0.0022334971 0.4600868821 0.6495002861
3884000000.0 0.1197812557 -0.1023772777 0.00288819056 0.001772632007 0.002883343026 0.001976997592 0.5061690807 0.617990921
3885000000.0 0.1204898953 -0.1160013116 0.003023886587 0.001559992088 0.003035582136 0.001843025908 0.549198091 0.5836621879
3886000000.0 0.1195430383 -0.1303339195 0.003213691292 0.00128589489 0.003131584264 0.001457793871 0.5897125006 0.5462560857
3887000000.0 0.1166741624 -0.1449580325 0.00326833385 0.001019747579 0.003380770562 0.001231628936 0.6272208095 0.5059249879
3888000000.0 0.1120800599 -0.1596450542 0.003327530576 0.000803602743 0.003420409281 0.001062235795 0.6617683768 0.4626956325
3889000000.0 0.1054911613 -0.1742700992 0.003415602958 0.0005770661519 0.003537956858 0.0006487256614 0.6927508116 0.4172813557
3890000000.0 0.0971012488 -0.1882337014 0.003517342964 0.0003046160273 0.003592637833 0.0003977622546 0.7200564146 0.3695978246
3891000000.0 0.08681104332 -0.2017251435 0.003610705491 5.498431165e-06 0.00373536814 0.0001064449316 0.7440382242 0.319856836
3892000000.0 0.07489401847 -0.2141391032 0.003579978598 -0.0002983989252 0.003665335011 -0.0001907872356 0.7645403743 0.2677651949
3893000000.0 0.06141840294 -0.2254435373 0.00361442822 -0.0006181579665 0.003675034037 -0.0005061991396 0.781008184 0.214220117
3894000000.0 0.04645686597 -0.2355937781 0.003576490795 -0.0009772272315 0.003724313108 -0.0008324139053 0.7932312489 0.1594592432
3895000000.0 0.03008560091 -0.244261426 0.003560386598 -0.001309366664 0.00371878338 -0.001098484499 0.8013905287 0.1034817822
3896000000.0 0.01254140306 -0.2513118016 0.0034119708 -0.001553032664 0.003562151687 -0.001460217405 0.8050895929 0.04693185549
3897000000.0 -0.006128512789 -0.2565238248 0.003361710114 -0.001914021559 0.003480821615 -0.001784871682 0.8046268821 -0.01088237916
3898000000.0 -0.02567753382 -0.2596688163 0.003274329472 -0.002198106144 0.003405551659 -0.002171621891 0.7992886305 -0.06885302879
3899000000.0 -0.0454791598 -0.2606382636 0.00306325336 -0.002514612162 0.003216841258 -0.002469996689 0.7896603346 -0.1273221911
3900000000.0 -0.06557738036 -0.2593609686 0.002826091601 -0.002760719974 0.003078105859 -0.002765161684 0.7747641802 -0.1849710576
3901000000.0 -0.08547770232 -0.2558899241 0.00265989732 -0.003107766621 0.002822209848 -0.003133376827 0.7552384138 -0.2419930771
3902000000.0 -0.1047433689 -0.2504811832 0.002403771039 -0.003315089503 0.002584825736 -0.003358816495 0.7304270267 -0.2983763291
3903000000.0 -0.1234057695 -0.2431696031 0.002125695348 -0.003619473428 0.00219161436 -0.003613181179 0.7007007003 -0.353213782
3904000000.0 -0.1414043307 -0.2341649871 0.001886347192 -0.003845663974 0.001924241311 -0.003927013371 0.6661139727 -0.4057866994
3905000000.0 -0.1584884226 -0.2233527783 0.001506687375 -0.004077007063 0.001646158984 -0.004083405714 0.6260109544 -0.4562312098
3906000000.0 -0.1745660305 -0.2108706281 0.001155714388 -0.004285892472 0.001329767867 -0.004320130218 0.5812284946 -0.5037758765
3907000000.0 -0.189321965 -0.1968973232 0.0006696148193 -0.004388000816 0.0007640317781 -0.004453777801 0.5316308141 -0.547272667
3908000000.0 -0.2025078982 -0.1814689817 0.0002606225898 -0.004628153984 0.0003955351422 -0.004570844583 0.4772506058 -0.5873763069
3909000000.0 -0.2141913325 -0.1647176242 -0.0002306104871 -0.004663771484 -1.477017668e-05 -0.004632424098 0.4185858667 -0.622540383
3910000000.0 -0.2242575586 -0.1467638628 -0.0006319936365 -0.004650368821 -0.000427720981 -0.004690244794 0.3558485806 -0.6528933536
3911000000.0 -0.2322524339 -0.1280095647 -0.001072851592 -0.004664662294 -0.0008593008388 -0.004632974975 0.2890250087 -0.6771018438
3912000000.0 -0.2381120324 -0.1089200802 -0.001616365509 -0.004556803964 -0.001323009492 -0.004635510501 0.2191063613 -0.6955286601
3913000000.0 -0.2421690971 -0.08906667425 -0.001995958155 -0.004457457922 -0.001864015823 -0.004510827828 0.146652922 -0.7067629377
3914000000.0 -0.2441034317 -0.06918480989 -0.002435607137 -0.004287921824 -0.002246886026 -0.004370499402 0.07251472026 -0.7108626413
3915000000.0 -0.2440673262 -0.04951165937 -0.002800687915 -0.004057926126 -0.002679605503 -0.004134949762 -0.002822229406 -0.7073583481
3916000000.0 -0.2418643385 -0.03002415419 -0.003310968867 -0.003807641799 -0.003074889304 -0.003896647366 -0.07823129743 -0.6961635292
3917000000.0 -0.2378347367 -0.01119223338 -0.003692909377 -0.003497740021 -0.003520050319 -0.003620775649 -0.1529684812 -0.6766941943
3918000000.0 -0.2320206016 0.007151215006 -0.004011745099 -0.003168039024 -0.003895515576 -0.00332607259 -0.2261355221 -0.6492858791
3919000000.0 -0.2241975516 0.02472250283 -0.004368750844 -0.002792074112 -0.004209124949 -0.002942814492 -0.2967145443 -0.6136071198
3920000000.0 -0.2146735638 0.04097725403 -0.004677705001 -0.002367292996 -0.004499962088 -0.002560142893 -0.3635494411 -0.5706277419
3921000000.0 -0.2031994164 0.0560580808 -0.004960854538 -0.001832855167 -0.004801593255 -0.002142061945 -0.4256701767 -0.5202275308
3922000000.0 -0.1903838217 0.06941994161 -0.005100251175 -0.001403354225 -0.00502757309 -0.001625493751 -0.4818116426 -0.4632851348
3923000000.0 -0.1764758378 0.08088878811 -0.005304472055 -0.0008238998707 -0.00522168912 -0.001174682984 -0.5318479538 -0.4006618284
3924000000.0 -0.1615084559 0.09059289213 -0.005368765444 -0.0003854601819 -0.005279675592 -0.0006224323879 -0.5746857524 -0.3328776637
3925000000.0 -0.1457594335 0.09829802548 -0.005414908752 0.0002909735194 -0.005391383078 -0.0001021060452 -0.6102412939 -0.2606480498
3926000000.0 -0.1295536458 0.1039918134 -0.005319010466 0.0007582784165 -0.005389411002 0.0004389995884 -0.6372902989 -0.1848556962
3927000000.0 -0.1131810024 0.1076783969 -0.005279921461 0.001296408125 -0.005379729904 0.001001316588 -0.6559901834 -0.1076033537
3928000000.0 -0.09642652422 0.1094268419 -0.005102954805 0.001810479327 -0.005229649134 0.001535263844 -0.6662054062 -0.02879704553
3929000000.0 -0.07992002368 0.1089201042 -0.00487191882 0.002241359558 -0.005069679581 0.001964250347 -0.6679896116 0.05004355087
3930000000.0 -0.06381034851 0.1060984111 -0.004659510683 0.002779940842 -0.00485893013 0.002481179545 -0.6613587141 0.1276608772
3931000000.0 -0.04853429645 0.1012527734 -0.004373630509 0.003273917362 -0.00453403173 0.002966827014 -0.6467855573 0.203484899
3932000000.0 -0.03423542157 0.09436899439 -0.004046716727 0.003626272315 -0.004227018915 0.003438277403 -0.6243890524 0.2769296586
3933000000.0 -0.02124807611 0.08550096128 -0.003617613576 0.00400233455 -0.003914359957 0.003772142343 -0.5955042243 0.3458969837
3934000000.0 -0.009957826696 0.07500324048 -0.003208962968 0.004257442895 -0.003491531126 0.004137754906 -0.5597621799 0.4113665665
3935000000.0 -0.0005172531819 0.06305653356 -0.002788132289 0.004561901558 -0.003101809416 0.004359147511 -0.5184512734 0.471850358
3936000000.0 0.007040401921 0.0498328086 -0.002357644727 0.004776189569 -0.002624171786 0.004621093161 -0.4719669223 0.5271509025
3937000000.0 0.0120310802 0.03582842696 -0.001904311357 0.004970853683 -0.002291319892 0.004887327086 -0.421153605 0.5769188185
3938000000.0 0.01488970406 0.02137246213 -0.001426399802 0.005088225007 -0.001686817384 0.005069283769 -0.3671862483 0.6207131777
3939000000.0 0.01540435757 0.006719271748 -0.0009848278714 0.005195362959 -0.001250611385 0.005240608938 -0.3098731637 0.6588975274
3940000000.0 0.01367290504 -0.007781871062 -0.0004727838968 0.005161235575 -0.000808915589 0.005301217549 -0.2500295043 0.691196289
3941000000.0 0.009532566182 -0.02198543989 -8.987928595e-05 0.005240809638 -0.0003714525665 0.005347731523 -0.1891971081 0.7171629481
3942000000.0 0.003210326424 -0.03554948461 0.0004277264525 0.005166096147 0.0002058187529 0.005275758449 -0.1263954937 0.7374925796
3943000000.0 -0.005240715574 -0.04801177004 0.0008735570591 0.005135736428 0.0006533578271 0.005237293895 -0.06394831091 0.7517838704
3944000000.0 -0.01580634713 -0.05918152608 0.001334757195 0.004957538098 0.001064255019 0.005062011071 -0.001100905007 0.7606294433
3945000000.0 -0.02825131454 -0.06864554664 0.001765267225 0.004794884473 0.001591565786 0.004995830357 0.06157870218 0.7639084108
3946000000.0 -0.04218189791 -0.07619807398 0.002185481135 0.004627182614 0.002024654066 0.004873772152 0.1233828068 0.7620085534
3947000000.0 -0.0573996827 -0.0816943056 0.002484369325 0.00438263407 0.002372001531 0.004677713383 0.1838234514 0.7548506336
3948000000.0 -0.0736060217 -0.0849605761 0.002864854876 0.004212679341 0.002741397591 0.004448810592 0.2426509559 0.7431963554
3949000000.0 -0.09051289409 -0.08581754211 0.003223381005 0.003996618558 0.003112898208 0.004121545702 0.2998784184 0.7268526173
3950000000.0 -0.1077682748 -0.08424678624 0.003512527328 0.003662087489 0.003452130361 0.00381937786 0.354565829 0.7060119891
3951000000.0 -0.1250908822 -0.08013750752 0.003785346169 0.003313155612 0.003754364327 0.003513473086 0.4071715474 0.6816870125
3952000000.0 -0.142073974 -0.07357877579 0.004063831177 0.003042621538 0.004022503737 0.003295628354 0.4572280049 0.6527187052
