!Created with skrf (http://scikit-rf.org).
# Hz S RI R 50.0 
!freq ReS11 ImS11 ReS21 ImS21 ReS12 ImS12 ReS22 ImS22
3800000000.0 0.04461141676 0.05552789946 -0.00244843564 -6.697561912e-05 -0.002467418788 -0.0002793130698 -0.2905349433 0.6774560383
3801000000.0 0.04083681852 0.05131531019 -0.002372204559 0.0001586323342 -0.002430771943 6.343967107e-05 -0.2320682108 0.7068040693
3802000000.0 0.03635406122 0.04817570057 -0.00239841966 0.0004301379377 -0.002396838041 0.0002970741771 -0.1720101982 0.7303933184
3803000000.0 0.03155216947 0.04604406646 -0.00220789155 0.0006649867282 -0.00229800283 0.0005094253574 -0.1119063273 0.7481979777
3804000000.0 0.02636181004 0.04508353621 -0.00211660401 0.0008907328011 -0.002254388062 0.0007425812073 -0.05203379691 0.7605951895
3805000000.0 0.02125384845 0.04522623507 -0.002058812417 0.001180102583 -0.002137727104 0.001009895466 0.008165616542 0.7679147547
3806000000.0 0.01628877781 0.04666443009 -0.001851269975 0.001244031359 -0.002005999209 0.001214741846 0.06764458865 0.7701277369
3807000000.0 0.01180012804 0.04931483653 -0.001660337322 0.00140807475 -0.001786913374 0.001467657741 0.1260061413 0.7678510389
3808000000.0 0.007811123971 0.05276850522 -0.00149264012 0.001609831117 -0.001609456609 0.001495637931 0.1835877746 0.7607932855
3809000000.0 0.004453252535 0.05724480396 -0.001396825071 0.00175091438 -0.001493924996 0.001682955655 0.2396982163 0.7492128503
3810000000.0 0.00194557081 0.0625828115 -0.001144352602 0.001750446274 -0.001270952751 0.001824508538 0.2939691842 0.7337192433
3811000000.0 0.0002739138436 0.06883895926 -0.0009746472351 0.001934283879 -0.001070568222 0.001846184721 0.3467558622 0.7144965961
3812000000.0 -8.608266944e-05 0.07558549301 -0.000775750028 0.001975878142 -0.0009384194273 0.001916443347 0.3965723515 0.692084803
3813000000.0 0.0006467385101 0.08271246165 -0.0006220267387 0.002036363352 -0.000753854576 0.001987343188 0.4453625977 0.6654425336
3814000000.0 0.002411935246 0.08993912471 -0.0004136589123 0.002007809468 -0.0004906580434 0.002052104566 0.4911052883 0.6356801204
3815000000.0 0.005226423033 0.09735983605 -0.000222383489 0.002062377986 -0.0002738284238 0.002060803352 0.533934474 0.603432555
3816000000.0 0.009492776357 0.1047972229 -3.743514389e-05 0.002025769558 -0.000158468305 0.002118462697 0.5744459033 0.5676883418
3817000000.0 0.0151098324 0.1120180849 0.0001660193666 0.002004233655 7.741563763e-07 0.002070373856 0.6125338078 0.5286622064
3818000000.0 0.02192912064 0.1186906586 0.000284857204 0.002002557507 0.0002382255479 0.002094433643 0.647505939 0.4873595028
3819000000.0 0.02995019406 0.1246339226 0.0005257207667 0.001903091441 0.0004155833449 0.001992119942 0.6792164445 0.4432482311
3820000000.0 0.03887129202 0.1299021347 0.0005879377713 0.001859797398 0.0005668835365 0.001999550033 0.7078175545 0.3971116548
3821000000.0 0.04886879399 0.1342030408 0.0007595042698 0.001805552747 0.0007008309476 0.001883585704 0.7328547239 0.3489850693
3822000000.0 0.05960687622 0.1373665104 0.0009265428525 0.001715066377 0.0008652588003 0.001775937504 0.7545596957 0.298642489
3823000000.0 0.07104707509 0.1394970526 0.001076646149 0.001642436371 0.001061575604 0.001765605062 0.7722812891 0.2462233314
3824000000.0 0.08319181204 0.1403996773 0.001268946449 0.001572221983 0.001287914114 0.00167525094 0.7863514423 0.1930996388
3825000000.0 0.09582381696 0.1398421873 0.001384883071 0.00144573662 0.001411341131 0.001568609616 0.796459794 0.138583959
3826000000.0 0.1085232198 0.1378209273 0.001538166078 0.001265907777 0.001509698341 0.001405295101 0.8024731278 0.08238873535
3827000000.0 0.1213376224 0.1345691441 0.001585679827 0.00122306298 0.001583843958 0.001324663404 0.8041315079 0.02553559477
3828000000.0 0.1340343803 0.1298956859 0.001770001487 0.00104622147 0.001795691438 0.001225446584 0.8017101288 -0.03190670221
3829000000.0 0.1464303136 0.1239047631 0.001877190312 0.000895092322 0.001824333216 0.00100303255 0.7947129607 -0.09059329287
3830000000.0 0.1583174914 0.1163852088 0.001951934188 0.0007197722443 0.001959317364 0.000828350021 0.7827058434 -0.1487799326
3831000000.0 0.1695506722 0.1076822948 0.00200917176 0.0005818110076 0.002004208509 0.0006670868606 0.7656518221 -0.2063197483
3832000000.0 0.1801253855 0.09766232243 0.00207483978 0.0004499591887 0.002167610219 0.0004802921321 0.7438012362 -0.2630669172
3833000000.0 0.1900178045 0.08634232975 0.002125568688 0.0002231098624 0.00221117842 0.0002820580266 0.7170798779 -0.3184171003
3834000000.0 0.1988842189 0.07380880519 0.002197448397 8.680700557e-05 0.002239489229 7.00518649e-05 0.6848692298 -0.3726072633
3835000000.0 0.2061417997 0.06039337977 0.002240757924 -8.353179146e-05 0.002292471705 -9.801646229e-05 0.6476800442 -0.4249384595
3836000000.0 0.2121232599 0.04603482659 0.002216134919 -0.0004043699882 0.002254866995 -0.0003336966329 0.605286479 -0.4742519484
3837000000.0 0.2166589648 0.03106013057 0.002259813249 -0.0006088549853 0.002274913015 -0.0005706262891 0.5577718019 -0.5206238615
3838000000.0 0.2196728885 0.01561184371 0.002152637579 -0.0008679312305 0.002199135255 -0.0007861928898 0.505027473 -0.5633334478
3839000000.0 0.2212148011 -0.0001645855757 0.002139868448 -0.001090691076 0.002172335051 -0.001046691905 0.4480048418 -0.6011410438
3840000000.0 0.220999524 -0.01595882587 0.0020205162 -0.001260020654 0.002019689884 -0.001247559558 0.3863945305 -0.6345050296
3841000000.0 0.2192005068 -0.03186339737 0.001956458436 -0.001453333301 0.001951748971 -0.001461582258 0.3210505545 -0.6618075134
3842000000.0 0.215714857 -0.04754378129 0.001775880228 -0.001685311901 0.00186914322 -0.001661377028 0.2519352138 -0.68313253
3843000000.0 0.2106985748 -0.06275124165 0.001724841306 -0.001943340641 0.001666821656 -0.001868436229 0.1800228059 -0.6979751742
3844000000.0 0.2040700614 -0.0770478496 0.001460801344 -0.002178782597 0.001483946457 -0.002068661852 0.1055479646 -0.7056836761
3845000000.0 0.1959323734 -0.09070320942 0.001173820579 -0.002383645857 0.001332244487 -0.002244689036 0.02954491042 -0.7055444027
3846000000.0 0.1863606572 -0.1029801295 0.001065002405 -0.002474597655 0.001090895385 -0.002418768825 -0.0466639027 -0.6976072207
3847000000.0 0.1757744402 -0.1140726953 0.0006372565404 -0.002608966082 0.0008017700166 -0.002553406172 -0.1225053892 -0.6813225739
3848000000.0 0.1642325968 -0.1237576201 0.0005147150368 -0.002733052941 0.000511979335 -0.00260234531 -0.1967336684 -0.6571810445
3849000000.0 0.1519263536 -0.1321463556 0.0002053569333 -0.002746012527 0.0003431140503 -0.002705436433 -0.2694689929 -0.6243122681
3850000000.0 0.1389632076 -0.1390366437 -0.0001880893251 -0.002762249205 2.412553295e-05 -0.002754752059 -0.3382119834 -0.5836168795
3851000000.0 0.1255961061 -0.1442130682 -0.0004728873319 -0.002774406224 -0.0002741340431 -0.002763357945 -0.4024513662 -0.5355082398
3852000000.0 0.1118965372 -0.1477982539 -0.0007734833634 -0.002762889024 -0.0006373788347 -0.002741036238 -0.4612667263 -0.4806536518
3853000000.0 0.09818779677 -0.1495524912 -0.001065534074 -0.00259146723 -0.0009196720202 -0.002695993986 -0.513610363 -0.419824888
3854000000.0 0.08496166021 -0.1495567066 -0.001393751008 -0.002494561486 -0.001206679735 -0.002555571496 -0.5589891076 -0.3531851257
3855000000.0 0.07221856713 -0.1482325732 -0.001615471672 -0.002327208174 -0.001446387032 -0.002398895798 -0.5967905521 -0.2828287816
3856000000.0 0.06015323475 -0.1453840099 -0.001884890255 -0.002165957354 -0.001751790987 -0.002270560013 -0.6267605424 -0.2083771155
3857000000.0 0.04891547933 -0.1413637163 -0.002100266749 -0.001959687099 -0.001982348273 -0.002025395399 -0.6480461955 -0.1318218037
3858000000.0 0.03865773976 -0.1362968938 -0.002279640874 -0.001690811245 -0.002141209319 -0.001840185258 -0.6609534025 -0.05397899037
3859000000.0 0.02929640189 -0.1303159915 -0.002463239944 -0.001451967517 -0.002397331642 -0.001580184209 -0.6654414535 0.02429378256
3860000000.0 0.02091608569 -0.1233267529 -0.002565764822 -0.001170972711 -0.00253375899 -0.001350171748 -0.6615462303 0.1014874642
3861000000.0 0.01382029429 -0.1154642171 -0.002729830565 -0.0008712113486 -0.002614564029 -0.001025006757 -0.6500980258 0.1770189361
3862000000.0 0.008162050508 -0.1069525849 -0.002774195978 -0.0005905604339 -0.002775636502 -0.0007421607152 -0.6312469244 0.2494127385
3863000000.0 0.003854048904 -0.09801548659 -0.002769321669 -0.0002714604489 -0.002826080192 -0.0005121986615 -0.6047763228 0.3191719426
3864000000.0 0.001055019558 -0.08896963218 -0.002775032306 -6.069028677e-05 -0.002797282068 -0.0001976670319 -0.5728211403 0.384281196
3865000000.0 -0.0003081598843 -0.07979536039 -0.002723449143 0.0002533909574 -0.002786846133 0.0001547637657 -0.5344238281 0.4457807131
3866000000.0 -0.000164180572 -0.07068392559 -0.002649505856 0.0005765876267 -0.002766647609 0.0004237924877 -0.4916027486 0.5018521584
3867000000.0 0.001451294054 -0.06210450704 -0.002588493749 0.0008068486932 -0.002646505367 0.0007093885797 -0.4443421066 0.5528579685
3868000000.0 0.004461183678 -0.05399123745 -0.00243573403 0.001036640373 -0.002546597039 0.000923136482 -0.3929768205 0.5982494184
3869000000.0 0.008691747673 -0.04660687936 -0.002368276473 0.001312809181 -0.002467341023 0.001190327806 -0.3389656544 0.6382572991
3870000000.0 0.01402175426 -0.04008013551 -0.002182357945 0.001509130816 -0.002321629552 0.001426622621 -0.2820802331 0.6723893978
3871000000.0 0.02055972256 -0.03461303704 -0.002053463133 0.001677739783 -0.002116254997 0.001579964999 -0.2235891372 0.7009457407
3872000000.0 0.02804458141 -0.03036504493 -0.001821180806 0.001910213265 -0.001994225895 0.001745510614 -0.163868621 0.7237939552
3873000000.0 0.03628407419 -0.02726771084 -0.001589707215 0.002016334794 -0.001802604296 0.001936967601 -0.1035781875 0.7411533368
3874000000.0 0.04523584619 -0.0256624055 -0.001408796408 0.00202462147 -0.001599274226 0.002066756133 -0.04268557951 0.7532221004
3875000000.0 0.05468998477 -0.025774421 -0.001290275599 0.002183790551 -0.001362563227 0.002189239254 0.01823011599 0.7601290664
3876000000.0 0.06430114806 -0.0275721991 -0.001073622494 0.002260144567 -0.001243746141 0.002292623976 0.07835613191 0.7617732579
3877000000.0 0.07363600284 -0.03109693492 -0.0008658324368 0.002327802591 -0.00110737409 0.002364792628 0.1376079023 0.7584923799
3878000000.0 0.08282780647 -0.03632821457 -0.0006441049045 0.002411123365 -0.0008174151299 0.002421306446 0.1956890821 0.7508677129
3879000000.0 0.09123183787 -0.0429109826 -0.0005036876537 0.002423177706 -0.0006155552692 0.002502643038 0.2525338531 0.7386102124
3880000000.0 0.09905771911 -0.05121102881 -0.000274760765 0.002479691524 -0.0004418865137 0.002551170764 0.3076705039 0.7220270176
3881000000.0 0.1058694869 -0.06084060946 -9.087116632e-05 0.002503708238 -0.000191075902 0.002583845053 0.3602971733 0.7018787484
3882000000.0 0.1113552004 -0.07180125134 0.000226776363 0.002549879253 2.394248668e-06 0.002600664506 0.4113037586 0.6774754816
3883000000.0 0.1154676229 -0.08397439781 0.0003424887836 0.002559323562 0.0002427806903 0.002608263167 0.4597838223 0.6495496522
3884000000.0 0.1181603372 -0.09673600318 0.0005910036271 0.002520703711 0.0004592233745 0.002636329737 0.5061885715 0.618129337
3885000000.0 0.1192974225 -0.1103259929 0.0008534670342 0.002486851066 0.0007969852886 0.002597796265 0.5491687655 0.5837780567
3886000000.0 0.1188272685 -0.1246424374 0.001056748326 0.002412293106 0.001049261657 0.002513522981 0.5896729231 0.5462570769
3887000000.0 0.1163905561 -0.1393076034 0.001298901043 0.002327478491 0.001241271268 0.002462780103 0.6272262335 0.5059714661
3888000000.0 0.112190634 -0.1540935735 0.001558768563 0.002189409221 0.001487755799 0.002391170477 0.6614991426 0.4629538369
3889000000.0 0.1057853699 -0.1686628936 0.00178290566 0.002083036816 0.001628201571 0.002236481057 0.6926236153 0.4173360437
3890000000.0 0.09751390666 -0.1827370546 0.001943577896 0.001880835393 0.001897913287 0.002067871857 0.7203034163 0.36957816
3891000000.0 0.08743623644 -0.1961368257 0.002084698761 0.00169594388 0.002163241152 0.001836433192 0.7441678047 0.3199180153
3892000000.0 0.07563076913 -0.2085648656 0.002207613317 0.001581580378 0.002282089088 0.001708409633 0.764292717 0.2681180697
3893000000.0 0.06225733832 -0.2195728358 0.002385873348 0.001406130032 0.002478789072 0.00148502877 0.7806564569 0.2148774782
3894000000.0 0.04768994078 -0.229387909 0.002621463267 0.001104079071 0.002598495455 0.001253320486 0.7929704189 0.1602152844
3895000000.0 0.03182216734 -0.237882654 0.002682495862 0.0008922771085 0.002687805332 0.001074023079 0.801250577 0.1043210709
3896000000.0 0.01492642611 -0.2448584515 0.00280995341 0.0006698313518 0.002810704987 0.0007926747785 0.8051260114 0.04675818796
3897000000.0 -0.002983377781 -0.2500977236 0.002840002067 0.0003709001467 0.002985779895 0.0004860089975 0.8046110272 -0.01082790513
3898000000.0 -0.02180513926 -0.2535661245 0.002887887647 4.824289499e-05 0.002948268782 0.0002814069449 0.7994340658 -0.06897509815
3899000000.0 -0.04118633643 -0.2549112126 0.002898863982 -0.0001636972156 0.002915261779 -7.620417455e-05 0.7895807028 -0.1268243286
3900000000.0 -0.0608057715 -0.2541212916 0.002882468747 -0.0004724194878 0.002935125958 -0.0003357841051 0.7749720812 -0.1846504408
3901000000.0 -0.08036003262 -0.251118787 0.002765212907 -0.0006891373778 0.002885397291 -0.0006740700337 0.7552152276 -0.2419539563
3902000000.0 -0.09952609986 -0.2461363367 0.002718108706 -0.0009611209389 0.002830975922 -0.0008252898115 0.7306204438 -0.2978185165
3903000000.0 -0.1179803014 -0.2391134087 0.002674072282 -0.001182044158 0.002765276236 -0.001066428376 0.7008948326 -0.3525816234
3904000000.0 -0.1355903149 -0.2303572661 0.002590440447 -0.001417633495 0.002709751716 -0.00132915657 0.6662224531 -0.405423635
3905000000.0 -0.1523093283 -0.2198707536 0.002495793859 -0.001642458141 0.002534535248 -0.001535126241 0.6263731718 -0.4560693836
3906000000.0 -0.1679791957 -0.2078141321 0.002379477024 -0.001883531222 0.002416067757 -0.00179498631 0.5813447237 -0.5036321077
3907000000.0 -0.182325542 -0.1942752988 0.002169410698 -0.002071946627 0.002267189557 -0.002070625778 0.5317628384 -0.5474810021
3908000000.0 -0.1952441633 -0.1794910046 0.002027541166 -0.002273932798 0.002082014456 -0.002275295556 0.4770862162 -0.5875922225
3909000000.0 -0.2067783177 -0.1635775257 0.001828695065 -0.002594677964 0.001942142728 -0.002512584673 0.4183267355 -0.6228730871
3910000000.0 -0.2168801278 -0.1467244274 0.001621153555 -0.002778676571 0.001756904763 -0.002645825269 0.3554879427 -0.6529329626
3911000000.0 -0.2252749503 -0.1288236512 0.001381040085 -0.002943724161 0.001538474113 -0.002885973547 0.2890160382 -0.6772177937
3912000000.0 -0.2318241298 -0.1100385049 0.001136022736 -0.003118545981 0.001224864507 -0.00305111683 0.2188887745 -0.6954910012
3913000000.0 -0.2363744974 -0.09069567163 0.0007101313095 -0.003278345102 0.0009246109985 -0.003197606886 0.1468225121 -0.7067570297
3914000000.0 -0.2386050075 -0.07103417149 0.0005252060364 -0.003368241712 0.0006377059617 -0.003316683928 0.07255557925 -0.7109667351
3915000000.0 -0.2387275398 -0.05141029726 9.726477583e-05 -0.003433984937 0.0002539056586 -0.003341501113 -0.002991346177 -0.7074229441
3916000000.0 -0.2369099855 -0.03215344702 -0.0001864313526 -0.003382594092 -3.519250458e-05 -0.00344428001 -0.07867383212 -0.6959953074
3917000000.0 -0.2331648469 -0.01350596864 -0.0005302685895 -0.003456069855 -0.0003243742685 -0.003403769806 -0.1533236206 -0.6766467612
3918000000.0 -0.2274923474 0.00444662605 -0.0008760090568 -0.003432581667 -0.0006804056466 -0.003444124246 -0.2265519053 -0.6491373965
3919000000.0 -0.2201564163 0.02165992919 -0.001230686437 -0.003361405805 -0.001048804144 -0.003359586466 -0.297044158 -0.6135990087
3920000000.0 -0.2110967785 0.03773791079 -0.001531872549 -0.003197208047 -0.001372855506 -0.003317198483 -0.36348629 -0.5706294456
3921000000.0 -0.2004074603 0.05285098945 -0.002001716988 -0.003119389759 -0.001733439625 -0.003224545857 -0.4253574312 -0.5204200798
3922000000.0 -0.1882411689 0.06650018578 -0.00230087433 -0.00290746917 -0.002170963679 -0.002966318047 -0.4820576608 -0.4631271629
3923000000.0 -0.1746519804 0.07857375337 -0.002531107282 -0.002654336859 -0.002426641993 -0.002756003058 -0.5319266319 -0.4008729332
3924000000.0 -0.1598687172 0.08883585311 -0.002854509745 -0.002460387303 -0.002709204331 -0.00254497095 -0.5749644041 -0.3325651773
3925000000.0 -0.1439553052 0.09702494104 -0.003117302665 -0.002077396493 -0.002954050666 -0.002307682764 -0.6101315022 -0.2602545947
3926000000.0 -0.1273887604 0.102979179 -0.003326442325 -0.001790914917 -0.00321326335 -0.00198511919 -0.6372855902 -0.1849002464
3927000000.0 -0.1104312092 0.1068546605 -0.003451338736 -0.001443587127 -0.003377617337 -0.001637256471 -0.6560756564 -0.1074312223
3928000000.0 -0.09334048629 0.108476054 -0.003592961701 -0.001101782778 -0.003512530588 -0.001270356355 -0.6663147807 -0.02890807215
3929000000.0 -0.07629485428 0.1076833064 -0.003742533736 -0.0007039305638 -0.003681781236 -0.0008952874923 -0.6681620479 0.04948861261
3930000000.0 -0.0598439239 0.1044950168 -0.003718493972 -0.0003758083913 -0.003792310599 -0.0005480628461 -0.6612787843 0.1275589523
3931000000.0 -0.04413983598 0.09916287934 -0.003740393324 4.004676885e-05 -0.003834402421 -0.0002610356314 -0.6467759013 0.2038508987
3932000000.0 -0.02970950305 0.09155363426 -0.003729464719 0.0004534358741 -0.003819094039 0.0002396216296 -0.6247365475 0.2763612194
3933000000.0 -0.01677510142 0.08189925751 -0.003668876598 0.0008237513248 -0.003763467772 0.0005630966625 -0.5955945253 0.3459093723
3934000000.0 -0.005709537305 0.07061785641 -0.003592064371 0.001185224392 -0.003732288256 0.0008847230929 -0.5600483418 0.411163103
3935000000.0 0.003337080823 0.05790023879 -0.003477273509 0.001480822335 -0.003637022572 0.001265228377 -0.5184152722 0.4719404045
3936000000.0 0.01010110416 0.0439713359 -0.003315011272 0.001850504545 -0.003467519302 0.001613622298 -0.4723060727 0.5268932797
3937000000.0 0.01437653136 0.02924194255 -0.003065690864 0.002186373109 -0.003264177125 0.001953595551 -0.4215393066 0.5766469091
3938000000.0 0.01610242762 0.01431942673 -0.002801773837 0.002405063482 -0.003027700353 0.002295164857 -0.3669966459 0.6207927107
3939000000.0 0.01537054684 -0.0004974708983 -0.002609863179 0.002685718937 -0.002832462545 0.002571859863 -0.310007751 0.6588454109
3940000000.0 0.01231062599 -0.0150905027 -0.002312132623 0.002917078556 -0.002558226231 0.00284782052 -0.2504729927 0.6908908408
3941000000.0 0.006907816511 -0.02879074341 -0.002023925772 0.003123735078 -0.002265797229 0.003028552048 -0.1892432272 0.7172009754
3942000000.0 -0.0007762886235 -0.04159818858 -0.001650602324 0.003321085824 -0.001969170524 0.003200236242 -0.1267697662 0.7375031458
3943000000.0 -0.0103635462 -0.05301078304 -0.001357459114 0.003427665215 -0.001642420772 0.003445065813 -0.06444946676 0.7518369298
3944000000.0 -0.02178202942 -0.06283359159 -0.001014356385 0.003514744341 -0.001290907618 0.003547097556 -0.001475083642 0.760712098
3945000000.0 -0.03460428864 -0.07066838622 -0.0007061777287 0.003567365464 -0.0009794402868 0.003574518021 0.06174083427 0.7640277606
3946000000.0 -0.04852879047 -0.07655799188 -0.0003516777942 0.003519742051 -0.0005162455491 0.003627715399 0.1232438758 0.7621108631
3947000000.0 -0.06336346269 -0.08060947289 -8.207136125e-05 0.003525712527 -0.0002321358043 0.003662374569 0.183607921 0.7550647471
3948000000.0 -0.07899094373 -0.08248575809 0.0002262741473 0.003479989246 7.023331273e-05 0.003589550266 0.2425831705 0.7433115628
3949000000.0 -0.09496566653 -0.08204030102 0.0005509790499 0.003512001829 0.000369545829 0.003602892859 0.2996622324 0.7267532257
3950000000.0 -0.1111667007 -0.07960772476 0.0008208173676 0.003415733343 0.0006390368217 0.003494064091 0.3544504344 0.7063222174
3951000000.0 -0.1271077693 -0.07478122413 0.001100467402 0.003342175391 0.0009561121115 0.003451673314 0.4069958925 0.6815677402
