!Created with skrf (http://scikit-rf.org).
# Hz S RI R 50.0 
!freq ReS11 ImS11 ReS21 ImS21 ReS12 ImS12 ReS22 ImS22
3800000000.0 0.01061642636 0.05548160986 0.0005244652275 0.001987789059 0.0004459953925 0.002100857906 -0.2899837792 0.6776843889
3801000000.0 0.006411673501 0.05553452861 0.0008453114424 0.001989908749 0.000660102407 0.002073915442 -0.2315942496 0.7065552009
3802000000.0 0.002021991648 0.05664941038 0.0009883969324 0.001969335368 0.0007798182196 0.002038891194 -0.1719586253 0.7303724197
3803000000.0 -0.002212897176 0.05885955263 0.00107458781 0.001818386838 0.00098484708 0.001983727096 -0.1120189279 0.7481088807
3804000000.0 -0.005966201425 0.06212892551 0.001303411438 0.001814162941 0.001183752669 0.001883104793 -0.05160047486 0.7604883247
3805000000.0 -0.009172433056 0.06626171366 0.001427741139 0.001636307687 0.001351897605 0.001768303802 0.008629677817 0.7679379873
3806000000.0 -0.0114881862 0.07128944588 0.00162282493 0.001586382277 0.001463663881 0.001690482022 0.06755013764 0.7702075357
3807000000.0 -0.01297461335 0.07699372376 0.001716458122 0.001473513315 0.001674841158 0.001662746305 0.1266954243 0.7675084374
3808000000.0 -0.01375561673 0.08313653317 0.001793822041 0.001370844548 0.001808595844 0.001484738779 0.1841182709 0.7605943644
3809000000.0 -0.01328478754 0.08979300794 0.001951587386 0.001184588531 0.001965099247 0.001348495018 0.239836365 0.7490949765
3810000000.0 -0.01216114871 0.09677157345 0.002118979581 0.001104117022 0.002091950504 0.001139429864 0.2942996025 0.7334685619
3811000000.0 -0.01018877793 0.1041168589 0.002222661395 0.0008692014962 0.002191295149 0.001027272665 0.3464104831 0.7143790711
3812000000.0 -0.006968043279 0.1115615774 0.002302168636 0.0007439430337 0.002333787503 0.0008862753166 0.3968241811 0.6916824796
3813000000.0 -0.002430446679 0.1192613516 0.002354106167 0.000559832959 0.002379162936 0.0007409016835 0.4451846778 0.6654091723
3814000000.0 0.003424170893 0.1265400038 0.002419786528 0.0003311887558 0.002470672829 0.0005203025648 0.4909427762 0.6357191691
3815000000.0 0.0102210287 0.1334728677 0.002368158894 0.0001803217601 0.002516991692 0.0003151668934 0.5345293283 0.6026976785
3816000000.0 0.01821679436 0.1397698161 0.002541879425 -4.58261311e-05 0.00257035275 0.0001369529491 0.5748354197 0.5671592828
3817000000.0 0.02724901214 0.1453562993 0.002465704922 -0.0002145619364 0.002616446931 -7.967187412e-05 0.6126227379 0.5284257397
3818000000.0 0.0371924378 0.1501119033 0.002470149426 -0.0003693863109 0.002666763961 -0.0003750247415 0.6475551724 0.4871408661
3819000000.0 0.0479885079 0.153993909 0.002511566039 -0.0006661550724 0.002574450569 -0.0005588597851 0.6792976856 0.4431367274
3820000000.0 0.05978785083 0.1568840592 0.002526654163 -0.0007658000104 0.002579893917 -0.0006889570504 0.7079662681 0.3965925989
3821000000.0 0.07207933813 0.1584141067 0.002405823441 -0.001028674422 0.002528128913 -0.0009648411651 0.7328683138 0.3485951536
3822000000.0 0.0849905014 0.1585815366 0.00241436623 -0.001213890617 0.002551508835 -0.001192636555 0.7545865774 0.2981071033
3823000000.0 0.09783834219 0.1576630503 0.00239076768 -0.00146983657 0.00249021803 -0.001421897905 0.7727150321 0.2464107723
3824000000.0 0.1111726239 0.1553544398 0.002294809325 -0.001703302492 0.002387255896 -0.001706117298 0.7864362597 0.1930690131
3825000000.0 0.124615036 0.1513845148 0.00214191759 -0.001887509017 0.002319596941 -0.001868317835 0.7966045141 0.137712538
3826000000.0 0.1379263252 0.1461317358 0.002070628107 -0.002117772354 0.002182212425 -0.002101259306 0.802443862 0.08180443928
3827000000.0 0.1510100663 0.1392803459 0.001958268229 -0.002257060958 0.002056044061 -0.00232799747 0.8042191267 0.02479370213
3828000000.0 0.1631717235 0.131177949 0.001764075132 -0.002570948331 0.001903800992 -0.00252963067 0.8018208742 -0.03307677975
3829000000.0 0.1748402566 0.1216645101 0.00156143296 -0.002684316831 0.001649519079 -0.002720407676 0.7945279479 -0.09056293064
3830000000.0 0.1852293015 0.1109922394 0.001304634963 -0.002909833333 0.001477791579 -0.00295410445 0.7823781967 -0.1489805865
3831000000.0 0.1948134452 0.09915789138 0.001181715867 -0.003021270502 0.00125887664 -0.003013547743 0.76565063 -0.2062996353
3832000000.0 0.2032792419 0.08647830664 0.0008654712001 -0.00325184851 0.0009862072766 -0.003200473264 0.7437443137 -0.2635012096
3833000000.0 0.210666433 0.07281370068 0.0006443464081 -0.003355655819 0.0007324927719 -0.003342628945 0.7167413235 -0.3188341474
3834000000.0 0.2167341262 0.05863956715 0.0003228496353 -0.003502534237 0.0003925303754 -0.003511446295 0.6847663522 -0.3727775393
3835000000.0 0.2214149386 0.04375419793 7.081924559e-05 -0.003488038434 0.0001278449199 -0.003505594097 0.6475377083 -0.4248386999
3836000000.0 0.2246148735 0.02815266937 -0.0003009933571 -0.003574362257 -0.0002729839762 -0.003690683283 0.6049104333 -0.474355072
3837000000.0 0.2260595113 0.01246812477 -0.0006379685365 -0.003706476884 -0.0005209264345 -0.003689146601 0.557354629 -0.5209223645
3838000000.0 0.2259691656 -0.003632297761 -0.0009563665953 -0.003592225956 -0.0009192624129 -0.003664310556 0.5046845675 -0.563608496
3839000000.0 0.2243342698 -0.01930932864 -0.00138642278 -0.003547564382 -0.001179838437 -0.003641951596 0.4474141598 -0.6016609558
3840000000.0 0.2210768759 -0.03465644697 -0.001709648408 -0.003553844523 -0.001553898095 -0.003597954521 0.3863067329 -0.6343605707
3841000000.0 0.2163455486 -0.04943928948 -0.001992201433 -0.003476813668 -0.001961325295 -0.003503812244 0.3208987415 -0.6617135122
3842000000.0 0.2100801915 -0.06362310321 -0.00244935439 -0.003252825234 -0.002291506389 -0.003310822416 0.2516946495 -0.683255776
3843000000.0 0.2025643438 -0.07697011667 -0.00276330323 -0.003088114085 -0.002664899919 -0.003192980308 0.1794079095 -0.6982215466
3844000000.0 0.1937800646 -0.08913508584 -0.003099344671 -0.002859711414 -0.002983266255 -0.002957902383 0.1054015234 -0.7056174398
3845000000.0 0.1837590039 -0.1003347278 -0.003438138403 -0.002638445236 -0.003318363335 -0.00272437348 0.02958583087 -0.7055582231
3846000000.0 0.1728021652 -0.1101078159 -0.003729326883 -0.002276942832 -0.003586337902 -0.002400332829 -0.04691358656 -0.697494759
3847000000.0 0.1612134278 -0.1183769764 -0.003983591218 -0.001903160359 -0.003868241562 -0.002047023503 -0.123059772 -0.6812306306
3848000000.0 0.1491347849 -0.1252573737 -0.004225965124 -0.001513283933 -0.004125804175 -0.00172253279 -0.1975627989 -0.6567268551
3849000000.0 0.1367733926 -0.1306355928 -0.004427008331 -0.001127149444 -0.004228423815 -0.00137071684 -0.2697843313 -0.6240585048
3850000000.0 0.1241510957 -0.1345041294 -0.00455407938 -0.0006925944472 -0.00444155978 -0.0009267454734 -0.3382327855 -0.5836221953
3851000000.0 0.111666739 -0.1369346383 -0.004652076401 -0.0001642958669 -0.004558042157 -0.0004407088563 -0.4026532173 -0.5353195637
3852000000.0 0.09940565377 -0.1378130401 -0.004722460173 0.0002556784893 -0.004610246513 -1.251401318e-05 -0.4612955749 -0.4805816873
3853000000.0 0.08733448386 -0.1375178709 -0.004676769488 0.0007011388661 -0.00465461053 0.0003860668512 -0.5138552785 -0.4192239595
3854000000.0 0.07584039867 -0.1359051717 -0.00467563374 0.001225872897 -0.004660523497 0.0008064559661 -0.5591122508 -0.353155071
3855000000.0 0.06484699994 -0.1329381158 -0.004462458193 0.001668122131 -0.004501038231 0.001303286175 -0.5967761874 -0.282323381
3856000000.0 0.0545573011 -0.1288506103 -0.004382544663 0.002064448548 -0.004397777375 0.00172270101 -0.6265788674 -0.2085136244
3857000000.0 0.0453180261 -0.123580388 -0.004104643129 0.002499032533 -0.004232526757 0.002224949421 -0.6479757428 -0.1319598052
3858000000.0 0.03719833121 -0.1172026235 -0.003930826671 0.002844103612 -0.004056606442 0.002590979449 -0.6609346867 -0.05397311028
3859000000.0 0.03037736006 -0.1102351365 -0.003678085282 0.00324234576 -0.0038155457 0.003009913024 -0.6652468443 0.02412124001
3860000000.0 0.02471441217 -0.102698909 -0.003281307174 0.003655670211 -0.003465464804 0.003341578878 -0.6615253687 0.1014907217
3861000000.0 0.02042124979 -0.09450130597 -0.002857770771 0.003862729995 -0.003107445547 0.00370048522 -0.6498962641 0.1770238407
3862000000.0 0.01756339706 -0.08609330021 -0.002541324589 0.00410613697 -0.002827893011 0.004037073813 -0.6309494972 0.2496453256
3863000000.0 0.01632320881 -0.07769364908 -0.002087741392 0.004319626838 -0.002422589343 0.004220948555 -0.6048743725 0.319015739
3864000000.0 0.0164283067 -0.06960399707 -0.001716787112 0.004533152562 -0.002034869278 0.004444743972 -0.5724638104 0.3849089391
3865000000.0 0.01787788048 -0.06175766265 -0.001275813323 0.004664094653 -0.001584973303 0.004660770297 -0.5344349742 0.4459785509
3866000000.0 0.02064860053 -0.05442698162 -0.0008324476075 0.004719720222 -0.001187671209 0.004755288363 -0.4913803637 0.5019512026
3867000000.0 0.02477026358 -0.04780783125 -0.0003893358517 0.004757614341 -0.0007194099016 0.004816404078 -0.4435423017 0.5531881721
3868000000.0 0.03007060476 -0.04232408873 9.231573495e-05 0.004805480596 -0.0003128772369 0.004926034249 -0.3923966289 0.5985603837
3869000000.0 0.03623014316 -0.03802063988 0.0005636269343 0.004720694385 0.0001900972711 0.004936204758 -0.3381103575 0.6384094654
3870000000.0 0.04293544218 -0.03481597082 0.00100440823 0.004640072584 0.0006221418735 0.004934185185 -0.2815604508 0.6725503338
3871000000.0 0.05024602264 -0.03279541495 0.001300567761 0.004572886974 0.001026446465 0.004764334764 -0.2230308652 0.7009378644
3872000000.0 0.0579899773 -0.03210923052 0.001777016791 0.004474845249 0.001387413009 0.004629835952 -0.1634645164 0.7239277854
3873000000.0 0.06590039283 -0.03256026492 0.00204021018 0.004226317164 0.00179300562 0.004489416722 -0.1033311188 0.7411323132
3874000000.0 0.07394731045 -0.03441736938 0.002450396307 0.004122738261 0.002203035867 0.004303509835 -0.04225406423 0.7532963178
3875000000.0 0.0822827369 -0.03761740827 0.002807575976 0.003809081391 0.002611612435 0.00413763104 0.01837193593 0.7599860478
3876000000.0 0.09007456154 -0.04226586087 0.003002762096 0.003607665887 0.002910658717 0.003882284742 0.07838496566 0.7618486973
3877000000.0 0.09762202203 -0.04823342443 0.00330915791 0.003347164951 0.003222683677 0.003622400342 0.1374213994 0.7587081046
3878000000.0 0.1046482399 -0.05546034261 0.003572626272 0.003047943348 0.003457456129 0.00336374389 0.1958499253 0.7507731848
3879000000.0 0.1109331325 -0.06404415733 0.003801323939 0.002745015547 0.003844881197 0.002955996431 0.2523708344 0.7386291174
3880000000.0 0.1164035276 -0.07388865879 0.004010202829 0.002447391627 0.004082950763 0.002669245936 0.3077568114 0.7222104046
3881000000.0 0.1206345633 -0.08502218857 0.004241949879 0.002060941886 0.004252365325 0.002336593345 0.3607608378 0.7016878828
3882000000.0 0.1235359758 -0.09711412622 0.004400542006 0.001710897777 0.004525353666 0.002029005438 0.411757201 0.6772524662
3883000000.0 0.1247768998 -0.1100094924 0.00456084311 0.001347146928 0.004614226054 0.001620162511 0.4602259398 0.6493994788
3884000000.0 0.1246060431 -0.1235190585 0.004683881532 0.0009702992975 0.004747594241 0.001196931233 0.5066578388 0.6179591816
3885000000.0 0.1226471141 -0.137269334 0.004730137531 0.0005629219231 0.004885398783 0.0008441436221 0.5499231815 0.5834003593
3886000000.0 0.1188834906 -0.1511806124 0.004793876782 0.0001881212957 0.004899070598 0.0004050432472 0.590256393 0.5458190549
3887000000.0 0.1135070175 -0.1647479597 0.004800964613 -0.000219770649 0.004949109163 8.318014011e-07 0.6277556419 0.5052611844
3888000000.0 0.106497094 -0.1780004661 0.004757191986 -0.0005168517237 0.004992544651 -0.0003955511493 0.6620315909 0.4624272075
3889000000.0 0.09799476713 -0.1907089134 0.004743105266 -0.0008923286805 0.004976743832 -0.000791105791 0.6928363442 0.417065839
3890000000.0 0.087999098 -0.2028821678 0.004650724586 -0.001373157138 0.004905122332 -0.001203517779 0.7204771042 0.3693012003
3891000000.0 0.07657125592 -0.214144899 0.004641124979 -0.001762085129 0.004869923927 -0.001607879763 0.7440849543 0.31977022
3892000000.0 0.06380787492 -0.2244233463 0.00451557152 -0.002155617345 0.004713329021 -0.002060009167 0.7645999193 0.2677105981
3893000000.0 0.04991805926 -0.2336420323 0.004349036608 -0.002473916858 0.0045301551 -0.002468977822 0.780908525 0.2143439208
3894000000.0 0.0349278301 -0.2416456706 0.004194603302 -0.002813151106 0.004363344051 -0.002788700862 0.7931398749 0.159512466
3895000000.0 0.01858790964 -0.2484125246 0.003999168053 -0.003276212374 0.004268200602 -0.003170574317 0.8013473153 0.1038499764
3896000000.0 0.001398537308 -0.2534013348 0.00369987078 -0.003526245942 0.003930939361 -0.003527726745 0.8050273061 0.04704582903
3897000000.0 -0.01640499383 -0.2567747349 0.003439664142 -0.003919356968 0.003577129915 -0.003892035456 0.8045549989 -0.01074164666
3898000000.0 -0.03475781158 -0.2582408688 0.0031318611 -0.004201524425 0.003338393057 -0.004185867496 0.7994567156 -0.06846645888
3899000000.0 -0.05326380581 -0.2579870895 0.002889401047 -0.004516130779 0.003018337069 -0.004559743218 0.7896949649 -0.1268475544
3900000000.0 -0.07180201262 -0.2558891809 0.002549788216 -0.004819065332 0.002653062111 -0.00483842846 0.7748292089 -0.1847642213
3901000000.0 -0.09021837264 -0.2519499001 0.002142551588 -0.005125605501 0.002256023232 -0.005121427123 0.7551267147 -0.2421168677
3902000000.0 -0.108209908 -0.2462559035 0.001678055502 -0.005282826722 0.001867303392 -0.00532641774 0.7306284308 -0.2977407386
3903000000.0 -0.1258854568 -0.2390542529 0.001214249409 -0.00554003194 0.001419819193 -0.005595191382 0.7009508014 -0.3526795947
3904000000.0 -0.1429010481 -0.2301020833 0.000752752705 -0.0057127974 0.0008487353334 -0.00572191691 0.6662401557 -0.4060770663
3905000000.0 -0.1591424048 -0.2192867467 0.0002601953165 -0.005798673723 0.000485165976 -0.005904845428 0.6261851192 -0.4565454572
3906000000.0 -0.1743095219 -0.2068099883 -0.0002574794053 -0.005956192967 -5.991263606e-05 -0.005961946677 0.5813736916 -0.5041560329
3907000000.0 -0.1881722957 -0.1927774818 -0.0007821272011 -0.005870663561 -0.0006515692221 -0.005967241246 0.5318632722 -0.5476334002
3908000000.0 -0.2003621608 -0.1774528514 -0.001409205608 -0.005942855962 -0.001251178561 -0.006052135024 0.4773087502 -0.5877837577
3909000000.0 -0.2111576647 -0.1610579022 -0.001887515653 -0.00589081319 -0.001729287789 -0.005981883034 0.4183037579 -0.62320899
3910000000.0 -0.2201052457 -0.1438919817 -0.002491662512 -0.005755018909 -0.002292875899 -0.005881410092 0.3553484976 -0.6534267517
3911000000.0 -0.2274577022 -0.1257516187 -0.003014295362 -0.005574326031 -0.002895035548 -0.005710954312 0.2890924513 -0.6774999354
3912000000.0 -0.2329430878 -0.1069756618 -0.003563679522 -0.00529989833 -0.003408334684 -0.005508568604 0.2188233733 -0.6958300626
3913000000.0 -0.2363941669 -0.08787154142 -0.004209421575 -0.005053767469 -0.004025023896 -0.005132597871 0.1469171792 -0.7071136905
3914000000.0 -0.2378377616 -0.06862190069 -0.00462113088 -0.004679355305 -0.00445404835 -0.004813110922 0.07226271927 -0.7111076464
3915000000.0 -0.2372999489 -0.0495445753 -0.005107108969 -0.004262540024 -0.004974933341 -0.004387344234 -0.00284976 -0.7076906932
3916000000.0 -0.2348643243 -0.03064704842 -0.005595075432 -0.003751328215 -0.005414361134 -0.003971839789 -0.07827561349 -0.6963065488
3917000000.0 -0.2301549762 -0.01230944741 -0.005980616901 -0.003251798917 -0.00582614867 -0.003448109142 -0.1531119496 -0.6770500357
3918000000.0 -0.2236322761 0.005108435241 -0.00638880441 -0.002674600109 -0.006209367421 -0.00295891054 -0.2269220501 -0.6491803778
3919000000.0 -0.215274483 0.02146928153 -0.00658916356 -0.002092022216 -0.006485993974 -0.002345945453 -0.2970333695 -0.6137903701
3920000000.0 -0.2053171396 0.03654633186 -0.006861779839 -0.001522313338 -0.006684795022 -0.001723567024 -0.3637918532 -0.5708068699
3921000000.0 -0.1940022856 0.05011886605 -0.00692275539 -0.0007016684394 -0.006929023191 -0.001137299114 -0.4260806441 -0.5201262984
3922000000.0 -0.1813540608 0.06216296226 -0.007091641892 2.036977457e-05 -0.007100523449 -0.0003856495023 -0.4823243022 -0.4631071339
3923000000.0 -0.1676076204 0.07233262304 -0.007096554153 0.0006612268626 -0.00715674134 0.0002771275758 -0.5321666002 -0.400528728
3924000000.0 -0.1527964622 0.08079889702 -0.007033312693 0.001345152734 -0.007087369449 0.001008628868 -0.5750599504 -0.3327510385
3925000000.0 -0.1376223266 0.08704798041 -0.006895094179 0.002062143292 -0.007029071916 0.001752415788 -0.6104747057 -0.2600993276
3926000000.0 -0.1220791787 0.09132561428 -0.006733190734 0.002767107217 -0.00677383272 0.00239507691 -0.6376392841 -0.1845803714
3927000000.0 -0.1063835323 0.0934410558 -0.006366247777 0.00342331687 -0.006553846411 0.003011453897 -0.6563153863 -0.1072527118
3928000000.0 -0.09101878852 0.09334186673 -0.005960489158 0.004031612538 -0.00621739449 0.003632803448 -0.6663199663 -0.02855166365
3929000000.0 -0.07608570904 0.0913193613 -0.005558462348 0.004634660203 -0.005895585287 0.004217761569 -0.6681370735 0.04994461577
3930000000.0 -0.06209762022 0.08731507323 -0.005177902058 0.005051087122 -0.005421133246 0.004749602638 -0.6614844799 0.1277345461
3931000000.0 -0.04901993275 0.08142768282 -0.00454965001 0.00557434978 -0.004956466611 0.005205594003 -0.6469585896 0.2036421783
3932000000.0 -0.03734545037 0.07407391968 -0.003970168997 0.005940674804 -0.004457707517 0.005625101738 -0.6249760985 0.2764325387
3933000000.0 -0.02700858377 0.06528823181 -0.003505234607 0.006226993632 -0.003818596248 0.00608560117 -0.5957285762 0.3460991236
3934000000.0 -0.01834838092 0.05527694097 -0.002922515618 0.00645952113 -0.003254626645 0.006388989743 -0.5600298047 0.4115156004
3935000000.0 -0.01134326681 0.04430144638 -0.002191142645 0.006697942968 -0.002659898717 0.006697231438 -0.5188093781 0.4718123889
3936000000.0 -0.006184599828 0.03266161652 -0.00165629026 0.006829736754 -0.002005749149 0.006932372693 -0.4720885754 0.5274988985
3937000000.0 -0.002930120332 0.02020197836 -0.0009951298125 0.006985917687 -0.001384578994 0.006943878718 -0.4214975834 0.5768192872
3938000000.0 -0.001628268627 0.007494249605 -0.0002736254537 0.007026115898 -0.0006949658855 0.007155770902 -0.3674766719 0.6208410657
3939000000.0 -0.002617793856 -0.005257748461 0.0003304787388 0.007004749496 -0.0001177468366 0.007026074454 -0.3097282946 0.6590760138
3940000000.0 -0.005424935371 -0.01762355623 0.0009329045424 0.006904087495 0.0005775267491 0.007056721486 -0.2500772774 0.6912589427
3941000000.0 -0.01019010507 -0.02959988411 0.001492607989 0.006731243804 0.001229470712 0.006992101669 -0.189253509 0.7173666358
3942000000.0 -0.01690126583 -0.04096008506 0.002034929115 0.006546492688 0.001775464509 0.006746080238 -0.1269979179 0.7376884984
3943000000.0 -0.0255613625 -0.05131737678 0.002612953773 0.006398935337 0.002400857164 0.00652029505 -0.06366305053 0.7520610958
3944000000.0 -0.0360288173 -0.06028767756 0.003112400183 0.006062826142 0.002895548241 0.006338611711 -0.0008450035239 0.7607569298
3945000000.0 -0.04803552106 -0.06771921067 0.003609449603 0.005740060005 0.003425620962 0.006047253031 0.06181650981 0.7640608662
3946000000.0 -0.06125589833 -0.07334780648 0.00400331337 0.005472648423 0.003895486705 0.005647797137 0.1235338897 0.7621867481
3947000000.0 -0.07561466843 -0.07703544041 0.004433558788 0.0050649927 0.004364389461 0.005375617184 0.1838898063 0.7551928122
3948000000.0 -0.09077838808 -0.07879057146 0.004819365218 0.004706547596 0.00477490481 0.004930301569 0.2426612526 0.7434148727
3949000000.0 -0.1066075414 -0.07829334913 0.005255797878 0.004132546484 0.005212372169 0.004556579515 0.2999738455 0.7270391995
3950000000.0 -0.1226801872 -0.07543006998 0.005556839518 0.003812269075 0.005508719012 0.004028437659 0.3546997607 0.7062461932
3951000000.0 -0.1385933906 -0.0702067711 0.005829690024 0.003345050151 0.005833255593 0.003508801339 0.4077319205 0.6814986556
3952000000.0 -0.1542517096 -0.06272547697 0.006079885643 0.002876173938 0.006131450646 0.003036711831 0.4578456283 0.6527374577
