!Created with skrf (http://scikit-rf.org).
# Hz S RI R 50.0 
!freq ReS11 ImS11 ReS21 ImS21 ReS12 ImS12 ReS22 ImS22
3800000000.0 0.05679831654 0.04862413327 0.0002264007198 0.003925202414 -1.818909186e-05 0.003922891803 -0.2890464664 0.6770301064
3801000000.0 0.05167730525 0.04309364329 0.0005486743758 0.003838879289 0.000286811759 0.003905073041 -0.230770871 0.7060854167
3802000000.0 0.04559098557 0.03867537831 0.0008232122636 0.003761593951 0.0005230766837 0.003834248055 -0.1714583039 0.729532832
3803000000.0 0.03889573365 0.03587604758 0.001208240166 0.00360081438 0.0009347976884 0.003737534629 -0.1118348166 0.7472973866
3804000000.0 0.03196591511 0.03461728826 0.001417548396 0.003423935967 0.001159886015 0.003571389941 -0.05175857618 0.7597377158
3805000000.0 0.02507863007 0.0345904255 0.001728196745 0.003199792234 0.001486003515 0.003442495596 0.008091786876 0.7670430374
3806000000.0 0.01840715855 0.0362158564 0.001994977007 0.003053857014 0.001708300668 0.00325646135 0.06759754568 0.769255068
3807000000.0 0.01216369681 0.03915410667 0.002133409027 0.002875781152 0.001954698004 0.003140824847 0.1257833987 0.7668593721
3808000000.0 0.006720292848 0.04349258848 0.002240550937 0.002734940499 0.002165606478 0.002974808216 0.1834708899 0.7597890928
3809000000.0 0.002263582544 0.04885128451 0.002528003417 0.002496520756 0.00241993065 0.00270533422 0.2394123524 0.7484906137
3810000000.0 -0.001216762234 0.05510911185 0.002652720781 0.002267270116 0.002537953435 0.002526003635 0.2938733697 0.732774787
3811000000.0 -0.003541525453 0.06225891715 0.00284057972 0.002096810378 0.002765520709 0.002400243655 0.346193105 0.7137028049
3812000000.0 -0.004697732627 0.06996479453 0.002940638689 0.001829159912 0.002944965847 0.002101551741 0.3965481222 0.6909690905
3813000000.0 -0.004821449053 0.07806485913 0.002994001145 0.001614721376 0.00305256946 0.001870977692 0.4442504644 0.6649359444
3814000000.0 -0.003387215314 0.08649030042 0.00305862166 0.001393692102 0.003179028397 0.001546175219 0.490206778 0.6353469982
3815000000.0 -0.0006917503779 0.09504768335 0.00320180133 0.0011159532 0.003241366474 0.001349190366 0.5333898664 0.6026368493
3816000000.0 0.003386379685 0.1035603446 0.003315323265 0.0009312510956 0.003341067117 0.001144198468 0.5741955042 0.5666094623
3817000000.0 0.008861389011 0.1118092477 0.003314291826 0.0007009949186 0.003437215928 0.0008919550455 0.611733675 0.52820523
3818000000.0 0.01560670603 0.1196071877 0.003358438611 0.0005000164965 0.003477393184 0.0005605551414 0.6463511586 0.4868930563
3819000000.0 0.02379888855 0.126812156 0.003432482481 0.0002108846675 0.003572238376 0.0004283602175 0.6783346534 0.4432317073
3820000000.0 0.03323201835 0.1332187748 0.003440193599 7.062854365e-06 0.003547650995 0.0001068131387 0.7069573998 0.3970055355
3821000000.0 0.04388660938 0.1386110828 0.003377344459 -0.0002281551424 0.003613298992 -0.0001399048051 0.7317170501 0.3487460163
3822000000.0 0.05550924689 0.1429784383 0.003453230485 -0.0005150728975 0.003581524128 -0.0004468181869 0.7535045147 0.2982879217
3823000000.0 0.06807061285 0.1456644621 0.003384794109 -0.0007486447576 0.003525306936 -0.0007318741991 0.771612227 0.2466505042
3824000000.0 0.08106146753 0.1469354751 0.003387537086 -0.001080170972 0.003539809259 -0.001026812824 0.7854524255 0.19299752
3825000000.0 0.09458371997 0.1468549793 0.003235853743 -0.001298406278 0.003486807691 -0.001144037233 0.7954902053 0.1383975356
3826000000.0 0.1083194911 0.145265518 0.003271885216 -0.001545418985 0.003409113968 -0.00155114464 0.8013919592 0.08182417009
3827000000.0 0.1219526753 0.142225721 0.003181251464 -0.001818771707 0.003273108043 -0.001736815553 0.8033844233 0.02560117562
3828000000.0 0.1356217712 0.1378424925 0.003024847247 -0.002072382951 0.003140214132 -0.002058180049 0.8008047938 -0.03234920342
3829000000.0 0.1491312683 0.1319125528 0.002843424212 -0.002379755024 0.002995012095 -0.002297416329 0.7933866978 -0.08995036963
3830000000.0 0.1623245627 0.1245274774 0.002762241755 -0.002626114991 0.002824985655 -0.002587914933 0.7816187143 -0.1477547364
3831000000.0 0.1751354337 0.1155872585 0.002546550706 -0.002812386723 0.002625427442 -0.002822366077 0.7646977305 -0.205520786
3832000000.0 0.1871900111 0.1048771367 0.002262631664 -0.003114538966 0.002484494122 -0.003054427681 0.7428065538 -0.2619776851
3833000000.0 0.19824332 0.09254911953 0.002081455197 -0.003251335118 0.002214960288 -0.003233349649 0.7160002589 -0.3180459273
3834000000.0 0.2078683972 0.07894852506 0.001850630622 -0.003476050682 0.001954270527 -0.003503678832 0.6840528846 -0.3718522478
3835000000.0 0.2159530371 0.0643101544 0.001538026379 -0.003684787778 0.001710077398 -0.003678731853 0.6467944384 -0.4239309648
3836000000.0 0.2224956602 0.04867024313 0.001219537342 -0.003825539257 0.001381788286 -0.003805273445 0.6043466926 -0.4733958964
3837000000.0 0.2273605168 0.03250517148 0.0009969618404 -0.003925768659 0.00107109698 -0.003919959534 0.5568232536 -0.5198338608
3838000000.0 0.230684042 0.01590615381 0.000669012079 -0.004128399771 0.0007997722132 -0.00405988656 0.5045781732 -0.5620656976
3839000000.0 0.2320918143 -0.001000208318 0.0002828226716 -0.004246167839 0.0004570613673 -0.004202423617 0.4476745129 -0.6000416052
3840000000.0 0.2318274081 -0.01809020212 -2.294516526e-05 -0.004271955229 6.881252921e-05 -0.004336548503 0.3861470819 -0.633046025
3841000000.0 0.2298675478 -0.03495748349 -0.0004838293535 -0.004384477623 -0.0003063060867 -0.004347448237 0.3203089535 -0.6609507807
3842000000.0 0.2261966318 -0.0515898885 -0.0008805916295 -0.004440520424 -0.000744212186 -0.004334596917 0.2514025569 -0.6820984309
3843000000.0 0.2208779156 -0.06772063217 -0.001283081598 -0.004321415909 -0.001135295723 -0.004323673435 0.1792086512 -0.6969532397
3844000000.0 0.2138044536 -0.0832973991 -0.001716793166 -0.004253792576 -0.001602253527 -0.004248286132 0.1050072238 -0.704440705
3845000000.0 0.2050488144 -0.09792439815 -0.002114590025 -0.004111461341 -0.002026484115 -0.004150841385 0.02923841588 -0.7044522421
3846000000.0 0.1948509812 -0.1114270414 -0.002589731943 -0.003863659455 -0.002360366052 -0.004034171347 -0.04676615447 -0.6963907641
3847000000.0 0.1832039505 -0.1234804824 -0.002970473375 -0.003671922721 -0.002779873786 -0.00374064385 -0.1224075258 -0.6802639961
3848000000.0 0.170469299 -0.1339441712 -0.003381638555 -0.00338133378 -0.003192173317 -0.003508599941 -0.1969366074 -0.6556534679
3849000000.0 0.1568450183 -0.1427283408 -0.003779567312 -0.00305595994 -0.003493398428 -0.003276770236 -0.2693243623 -0.6228632652
3850000000.0 0.1426073611 -0.1497072148 -0.004043586552 -0.00274442276 -0.003840370802 -0.002832141938 -0.33773157 -0.5825674414
3851000000.0 0.1279892623 -0.1549778 -0.004296026658 -0.002249517245 -0.004126226995 -0.00250618998 -0.4017333984 -0.5348190006
3852000000.0 0.1133856848 -0.1583093018 -0.00459160516 -0.00180334074 -0.004378667567 -0.002088716254 -0.4604286849 -0.4798851199
3853000000.0 0.09877886623 -0.1599268116 -0.00464277342 -0.001393463928 -0.004513073247 -0.001610630658 -0.5128403306 -0.4189159578
3854000000.0 0.08465155959 -0.1598055467 -0.004704102408 -0.0008175246185 -0.004688492976 -0.001179893501 -0.5581936836 -0.3528338862
3855000000.0 0.07109253854 -0.1581492336 -0.004769234918 -0.0003301571414 -0.004704884719 -0.0006873400416 -0.5960841775 -0.282239449
3856000000.0 0.05820868537 -0.1550962456 -0.00478765415 8.704668289e-05 -0.004764813464 -0.000209826525 -0.6257713437 -0.2074853262
3857000000.0 0.04628082737 -0.1506755064 -0.004751142114 0.0005765738897 -0.004745909944 0.0001892376167 -0.6470007896 -0.1312194939
3858000000.0 0.03525185585 -0.1452585005 -0.004672066309 0.0009588649846 -0.004691186827 0.0006156916497 -0.6600688696 -0.05383206925
3859000000.0 0.02516735159 -0.1388446969 -0.00448398944 0.00144919951 -0.004648806993 0.001053036656 -0.6646069884 0.02404561633
3860000000.0 0.01598914713 -0.1313966523 -0.004341264255 0.001821719692 -0.004367616028 0.001535134739 -0.6608320475 0.1014045661
3861000000.0 0.008096553385 -0.122719167 -0.00412092451 0.002169274958 -0.004182824399 0.001951680868 -0.6491548419 0.176550939
3862000000.0 0.0018322533 -0.1133591636 -0.003875960363 0.002532838844 -0.004017649218 0.002323494526 -0.6299859285 0.2494055855
3863000000.0 -0.002933543175 -0.1035194287 -0.003623607336 0.002817950677 -0.003809109563 0.002578577492 -0.6039745212 0.319111048
3864000000.0 -0.006033101585 -0.09328591446 -0.003233938944 0.003072061809 -0.003587403335 0.002893405501 -0.5718215704 0.3844472532
3865000000.0 -0.007402786519 -0.08291827334 -0.00292683905 0.003307827283 -0.003214850323 0.003219905775 -0.5337794423 0.4453309217
3866000000.0 -0.007074623834 -0.07289538838 -0.002601363696 0.003557452234 -0.002929291455 0.003426896641 -0.4908236861 0.5013239012
3867000000.0 -0.005203732289 -0.06344346466 -0.002244536066 0.00374568603 -0.002603288274 0.003625873476 -0.4433467686 0.5524448626
3868000000.0 -0.001867628074 -0.05449275409 -0.001941479975 0.003884279868 -0.002252154518 0.003747320501 -0.3917506635 0.5978549618
3869000000.0 0.002866552677 -0.04633676826 -0.001578252879 0.00394233549 -0.001882892917 0.004008605611 -0.3377188146 0.6377175357
3870000000.0 0.008990568109 -0.03923064785 -0.001194091863 0.004118894693 -0.001469824812 0.004094203003 -0.2813684344 0.6717464817
3871000000.0 0.01642668247 -0.03326696067 -0.0008637812571 0.004117641132 -0.001142656314 0.004169954453 -0.22263138 0.7003000103
3872000000.0 0.02471551672 -0.02885264831 -0.0004319716827 0.004092415329 -0.0007862237981 0.004239525646 -0.1630291641 0.7229839761
3873000000.0 0.03355907276 -0.02611331394 -6.921323074e-05 0.004065473564 -0.0004815665307 0.004214978777 -0.1030116007 0.7404025096
3874000000.0 0.04299821705 -0.02474669012 0.000172913773 0.00410624966 -5.188713476e-05 0.004239502363 -0.04214195907 0.7525543591
3875000000.0 0.05258015916 -0.02510814738 0.00044479192 0.004029440694 0.0002323950903 0.004205376375 0.01836391538 0.7592893771
3876000000.0 0.06240352243 -0.02709600707 0.0008271909319 0.003983093891 0.0005656227586 0.004162413999 0.07805152982 0.7605875925
3877000000.0 0.07185520232 -0.03070869582 0.001057130401 0.00395453861 0.0008844095282 0.00396705186 0.1374083608 0.7576710707
3878000000.0 0.08110909164 -0.03598091132 0.001439248212 0.003678886453 0.001182005624 0.003956442699 0.1957061291 0.7499770719
3879000000.0 0.08957871795 -0.04277957722 0.001685954048 0.0035863542 0.001517642406 0.003838071367 0.252479881 0.7378859892
3880000000.0 0.097181499 -0.05083753481 0.00194151653 0.003433680395 0.001853317721 0.003658856498 0.3074625134 0.7212150257
3881000000.0 0.1039677262 -0.06024748519 0.002194986911 0.003267247695 0.002155949827 0.003467056202 0.3606733978 0.7006805806
3882000000.0 0.1097420976 -0.07100793861 0.002346896566 0.00305257435 0.002334888093 0.003285510698 0.4115931988 0.6764966773
3883000000.0 0.1141979247 -0.08276239204 0.002651638351 0.002872851212 0.002659892663 0.003087794874 0.4595883489 0.6486981617
3884000000.0 0.1172445044 -0.09566328293 0.002897230443 0.002661168575 0.002809455385 0.002863984089 0.5059096217 0.6174462619
3885000000.0 0.1186486781 -0.1092417632 0.003065833822 0.002376747318 0.003018910531 0.002582530724 0.5488131642 0.5827528164
3886000000.0 0.1184590384 -0.123553416 0.00320574292 0.00212930399 0.003157658735 0.002449635882 0.5890914798 0.5456330038
3887000000.0 0.1163489744 -0.1381631961 0.003315726295 0.001957021188 0.003415351501 0.00209343317 0.6268841624 0.5049641309
3888000000.0 0.1125436202 -0.1529916491 0.00348784402 0.001702594222 0.003565199906 0.001886216691 0.66147542 0.4618143156
3889000000.0 0.1068732291 -0.1675901756 0.003650487633 0.0013681493 0.003759440733 0.001640390023 0.6919955015 0.4168273464
3890000000.0 0.09920373559 -0.1821787953 0.003739969572 0.001092729392 0.003788856091 0.001273948699 0.7195025682 0.3689433422
3891000000.0 0.08962348849 -0.1962314918 0.003760893596 0.0007829763927 0.003937292844 0.0009803420398 0.7434208393 0.3191060379
3892000000.0 0.07816034555 -0.2093880998 0.003891594242 0.0005009419983 0.003973270766 0.0006370488554 0.7635296583 0.2677258015
3893000000.0 0.06502299756 -0.2213415448 0.003866579151 0.0001750059455 0.004013912752 0.0003393277584 0.7796912193 0.2144115017
3894000000.0 0.05001545697 -0.2321150718 0.003920211457 -8.623084432e-05 0.004002441186 0.0001274685201 0.7920616865 0.1596228307
3895000000.0 0.03370411694 -0.2414065417 0.003878284013 -0.0003842234146 0.004039721098 -0.0001964214025 0.8002209663 0.1038449437
3896000000.0 0.01616076939 -0.2488217052 0.003909934312 -0.0006795353256 0.003994633444 -0.0005431469181 0.8042165041 0.04647096954
3897000000.0 -0.002368611284 -0.2542784813 0.003888974199 -0.0009662062512 0.003955660854 -0.0008257031441 0.8036547303 -0.01122269929
3898000000.0 -0.02168107033 -0.2576642032 0.003770874115 -0.001276679919 0.003945902456 -0.00116340653 0.7984459996 -0.0687894529
3899000000.0 -0.04130230471 -0.2591835978 0.003730204422 -0.001607365324 0.003792564152 -0.001423236681 0.7885904312 -0.1267045953
3900000000.0 -0.06128508598 -0.2585828406 0.003563642269 -0.001739361673 0.003703801427 -0.001715085818 0.7738016844 -0.1846822662
3901000000.0 -0.08113119006 -0.2559898716 0.003494570032 -0.0020774554 0.003616022412 -0.002103805775 0.7543268204 -0.2415155117
3902000000.0 -0.1009379923 -0.2512515897 0.003405643394 -0.002438217169 0.003496969352 -0.002347209258 0.7294135094 -0.2980435337
3903000000.0 -0.1200889871 -0.2445456957 0.003165399656 -0.002622787841 0.003294766881 -0.002654085169 0.6997385621 -0.352480522
3904000000.0 -0.1385750473 -0.2357580639 0.002996682888 -0.003014657879 0.003097604262 -0.002947838278 0.6651467085 -0.4052858581
3905000000.0 -0.1561186314 -0.2250129648 0.002764062257 -0.003214343218 0.002869527321 -0.003238616511 0.625109911 -0.4558525787
3906000000.0 -0.172540009 -0.2126034837 0.002541882917 -0.003568758722 0.002701435005 -0.003479340114 0.580316484 -0.5032170213
3907000000.0 -0.1875738204 -0.198653477 0.002227516845 -0.003749461845 0.002367534442 -0.003649739549 0.5307085514 -0.5471497314
3908000000.0 -0.2010913193 -0.1832664967 0.001933196792 -0.00392368855 0.002093397547 -0.003888028907 0.4762462676 -0.5869370774
3909000000.0 -0.2129920721 -0.1665905854 0.001635795226 -0.004158929922 0.001791707822 -0.004107106477 0.4177593291 -0.6219915647
3910000000.0 -0.2231461257 -0.1488573824 0.00132741197 -0.004283934832 0.001387887402 -0.004279523622 0.3546856046 -0.6522945926
3911000000.0 -0.2316119522 -0.1303545514 0.0009596173186 -0.00446851179 0.001089252066 -0.004428775981 0.2883187532 -0.6765082665
3912000000.0 -0.2380418181 -0.1108716028 0.0005484566791 -0.004595448263 0.00077971071 -0.004534570035 0.2185565382 -0.6944868574
3913000000.0 -0.2424435318 -0.09111179245 0.0002411836613 -0.004716783296 0.0003919219307 -0.004647634923 0.1463323087 -0.7058613726
3914000000.0 -0.2446341664 -0.07093835229 -0.000285467162 -0.004775500856 -9.802141722e-05 -0.004747957923 0.07245767862 -0.7099278541
3915000000.0 -0.244712308 -0.05105497429 -0.0006797639071 -0.004762474447 -0.0004145342391 -0.004808107391 -0.003216691082 -0.7064495795
3916000000.0 -0.2425659895 -0.03129483339 -0.001048108563 -0.004690988921 -0.0009089503437 -0.004774441943 -0.07870087773 -0.6949897733
3917000000.0 -0.2383814305 -0.01185985154 -0.001649304293 -0.004651750904 -0.001274213428 -0.004757390823 -0.1534312367 -0.6756130634
3918000000.0 -0.2323204875 0.006401947169 -0.001977189211 -0.004584211856 -0.001700429479 -0.004623765592 -0.2263756245 -0.6481952091
3919000000.0 -0.2243050337 0.02371784209 -0.002486722078 -0.00439131679 -0.002269204473 -0.004525780212 -0.2966017723 -0.6128289437
3920000000.0 -0.2145758867 0.03978886459 -0.002909111558 -0.00418212777 -0.002643339569 -0.004343557637 -0.3631672263 -0.569691342
3921000000.0 -0.2033197731 0.05438133119 -0.003284370992 -0.003942859359 -0.003081481671 -0.004101946484 -0.425031662 -0.519440629
3922000000.0 -0.1909003854 0.06741161093 -0.003658823203 -0.003596174764 -0.003472727723 -0.003739408916 -0.481425941 -0.4626424509
3923000000.0 -0.1772346646 0.07872506117 -0.004043779802 -0.003182625398 -0.003809502814 -0.003478848841 -0.5313763022 -0.3997005986
3924000000.0 -0.1628511697 0.08830299603 -0.004337048158 -0.00284945243 -0.004132913891 -0.00311405398 -0.5742487907 -0.331719839
3925000000.0 -0.1476785094 0.09605956101 -0.004641728941 -0.002437493065 -0.004458541982 -0.002635024721 -0.6094189286 -0.2600219257
3926000000.0 -0.1316529363 0.1020094163 -0.004850438796 -0.002038544044 -0.004641623702 -0.002315071877 -0.6366891861 -0.1845032093
3927000000.0 -0.1155506968 0.1057182112 -0.004940866027 -0.001545641222 -0.004812305328 -0.001870626118 -0.6553193927 -0.1072584988
3928000000.0 -0.09921246767 0.1074328778 -0.005080156494 -0.001051921514 -0.005058251787 -0.001470504445 -0.6655123234 -0.02860338196
3929000000.0 -0.08309555054 0.1070178932 -0.005151780322 -0.0005819063517 -0.005066592712 -0.0009101448231 -0.6674091816 0.04983926684
3930000000.0 -0.0674938038 0.1042191566 -0.005160855129 -7.545997505e-05 -0.005165094044 -0.0004511353327 -0.6607465744 0.1274609319
3931000000.0 -0.05282210186 0.09972873313 -0.005217574537 0.0004575782805 -0.00521919271 2.377413693e-05 -0.6461069584 0.203379559
3932000000.0 -0.03897221386 0.09326340127 -0.005087685306 0.0008268611855 -0.005129456054 0.0005625198828 -0.6239849925 0.2763599148
3933000000.0 -0.02647342533 0.08484476207 -0.004930015188 0.00129688275 -0.005064344034 0.001023098477 -0.5950137973 0.3456257072
3934000000.0 -0.01567494124 0.07485691719 -0.004786899779 0.001764030778 -0.00494494522 0.001471270458 -0.5595179796 0.4107309074
3935000000.0 -0.006723467261 0.0636394884 -0.004534409847 0.002220327733 -0.004818569403 0.00185706804 -0.5184921026 0.4712126847
3936000000.0 8.340241766e-05 0.05136578105 -0.004286502954 0.002545445692 -0.004527668003 0.002244223142 -0.4715028107 0.5268656098
3937000000.0 0.004883938003 0.03846680919 -0.004050693475 0.002845881972 -0.004335958976 0.002651259303 -0.4209717214 0.5764095514
3938000000.0 0.007569872774 0.0251420193 -0.003793935757 0.003148901276 -0.004056585953 0.003018607385 -0.3667079806 0.62030186
3939000000.0 0.008247992024 0.01184537703 -0.003452678677 0.003428527853 -0.003701691981 0.003333204193 -0.309512645 0.658342838
3940000000.0 0.006656720303 -0.001421920509 -0.003201124724 0.003686717013 -0.003406025004 0.003574056551 -0.2502226233 0.6903947173
3941000000.0 0.003184574889 -0.01431817994 -0.002809189958 0.003977048676 -0.003121210961 0.003877647454 -0.1886743903 0.7167772265
3942000000.0 -0.002364477841 -0.02652806681 -0.002507019555 0.004126616288 -0.002750308486 0.004062018357 -0.1269553602 0.7368342014
3943000000.0 -0.009898357093 -0.03792556889 -0.002133166417 0.00429291511 -0.002447243314 0.004309458192 -0.06368201226 0.7512283765
3944000000.0 -0.0192458611 -0.04802680692 -0.001756526879 0.004482866731 -0.002011468867 0.004469936714 -0.001042346354 0.7602713625
3945000000.0 -0.03005761094 -0.05652460586 -0.001377763576 0.004577732179 -0.001666670316 0.004581319168 0.06114130095 0.7634426698
3946000000.0 -0.04223316163 -0.06354106874 -0.001026559854 0.004654901568 -0.001295264228 0.004683033563 0.1226336062 0.7616084435
3947000000.0 -0.0557603538 -0.06886644442 -0.0007347908104 0.004702115897 -0.0008903141716 0.004779288545 0.1834905446 0.7546350723
3948000000.0 -0.07011154294 -0.07209476244 -0.000369603571 0.004806061275 -0.000533019891 0.004824169446 0.24240008 0.7427257205
3949000000.0 -0.0852136761 -0.07331377723 1.337302183e-05 0.004753692541 -0.0001678802655 0.00489890296 0.2994402349 0.7264425668
3950000000.0 -0.1007976905 -0.07237991275 0.0004696539545 0.004722705577 0.0002056000085 0.004889589734 0.3549086154 0.7056338782
3951000000.0 -0.116571255 -0.0690564783 0.0007402956835 0.004735659342 0.000562894973 0.004904123954 0.4066329598 0.6811331858
3952000000.0 -0.1319635063 -0.06349490901 0.001156942453 0.00465943059 0.001032620785 0.004783969838 0.4569364786 0.6525538382
