!Created with skrf (http://scikit-rf.org).
# Hz S RI R 50.0 
!freq ReS11 ImS11 ReS21 ImS21 ReS12 ImS12 ReS22 ImS22
3800000000.0 0.04389539361 0.05106686548 -0.002328159753 -0.0001139570522 -0.002367693465 -0.0001884396625 -0.2909101546 0.6775525635
3801000000.0 0.03956425935 0.04685816996 -0.002333521144 8.899690147e-05 -0.002411255147 5.211123425e-05 -0.2323474586 0.7067041213
3802000000.0 0.03465253487 0.04357557173 -0.002352040261 0.0003771118063 -0.002340475796 0.0002578307176 -0.1722731739 0.7301668477
3803000000.0 0.02919721976 0.0414942048 -0.002233940642 0.0005612501409 -0.002305544447 0.000442454766 -0.1120091751 0.7482448228
3804000000.0 0.02340982296 0.04083480067 -0.002109973691 0.0007812375552 -0.002213680651 0.0007391981198 -0.05166353658 0.7607175694
3805000000.0 0.01779453084 0.04140876767 -0.002096462529 0.001002267702 -0.002107338514 0.000902448548 0.008256520145 0.7680566447
3806000000.0 0.01247640047 0.04326449171 -0.001921640825 0.00114590046 -0.002051947638 0.001031004707 0.06748431176 0.7701492146
3807000000.0 0.007576085627 0.04634390689 -0.001834755181 0.001356780413 -0.001839358592 0.001224196283 0.1261047721 0.7676303402
3808000000.0 0.003365725046 0.05027336818 -0.001663667732 0.001517662196 -0.00175804412 0.001427483163 0.1835054308 0.7605484505
3809000000.0 -9.055786359e-05 0.05526797489 -0.001441962551 0.001611942658 -0.001594812726 0.001579818083 0.2395866066 0.7491811817
3810000000.0 -0.002708114916 0.06099085143 -0.001364624826 0.001684230636 -0.001449575415 0.001640941598 0.2941684723 0.7335790935
3811000000.0 -0.004329502117 0.06759986366 -0.001100093126 0.001816411503 -0.00129753584 0.00181245734 0.3465312421 0.7145974468
3812000000.0 -0.005068843719 0.07473511285 -0.00100516167 0.001905013691 -0.001167924143 0.001881645294 0.3966621161 0.6919401361
3813000000.0 -0.004513093736 0.0823703942 -0.0007570736343 0.001916282927 -0.0009636650211 0.001982555026 0.4450034797 0.6656508879
3814000000.0 -0.00296074478 0.09018091555 -0.0006687977584 0.001976997592 -0.0007902213256 0.002110209083 0.4905157983 0.6361057961
3815000000.0 0.0003921956522 0.09811387609 -0.0005396121414 0.002037717495 -0.0006084208726 0.002121177968 0.5340569019 0.6032230042
3816000000.0 0.004678755533 0.1059194729 -0.0003242959792 0.002080022823 -0.0003955552238 0.00209270278 0.5746414661 0.5674634511
3817000000.0 0.01035319362 0.1134212124 -0.000169579449 0.00208343775 -0.0002357847115 0.002197643276 0.6123464704 0.528873068
3818000000.0 0.01733149402 0.1203620648 -2.795749788e-05 0.002080629114 -7.496652688e-05 0.002148035448 0.6474288106 0.4875122937
3819000000.0 0.02522085235 0.12674044 0.0001330381492 0.002125038998 5.79698135e-05 0.002130904235 0.6790787578 0.4436525572
3820000000.0 0.03412831202 0.1326092759 0.000317080121 0.002017020946 0.0003677461355 0.002155927476 0.7076525688 0.3974298514
3821000000.0 0.04440379143 0.1374946373 0.0005503185675 0.002044111723 0.000441564247 0.002152950736 0.7327000499 0.349230789
3822000000.0 0.05537322909 0.1413805111 0.0007646642043 0.002046914306 0.0006486732163 0.002084800275 0.754463315 0.2990616886
3823000000.0 0.06735171378 0.1440305964 0.0008326355601 0.001936849789 0.0008448138251 0.002031391952 0.7723040581 0.2470764511
3824000000.0 0.07998603582 0.1453721984 0.001013068017 0.001889217994 0.0009648833075 0.002066829475 0.7862377763 0.1933889411
3825000000.0 0.09320750087 0.1452699723 0.001162006287 0.001772133866 0.001171027194 0.001906611025 0.7965351939 0.1385007131
3826000000.0 0.1067534238 0.1436588582 0.001362444018 0.001721892622 0.00133164099 0.001818291843 0.8023753762 0.08246548504
3827000000.0 0.1202354506 0.1404732742 0.001435518498 0.00168007426 0.001511781127 0.001658360707 0.804387033 0.02526629693
3828000000.0 0.1337360591 0.1358446689 0.00157493772 0.001523855142 0.001650283928 0.00158590998 0.8018705249 -0.03286640141
3829000000.0 0.1467937976 0.1295486404 0.001738679362 0.001412810641 0.001766718342 0.001484420034 0.7946327925 -0.09039969993
3830000000.0 0.1594089866 0.1217216326 0.001899441704 0.001242010505 0.001838495024 0.00131537253 0.7826963067 -0.1483208217
3831000000.0 0.1712376326 0.1126574686 0.001993121579 0.001140433364 0.00205361261 0.001258624718 0.7657371759 -0.2060145312
3832000000.0 0.1822964549 0.102162018 0.002117099939 0.0009760726243 0.002177037532 0.001060969313 0.7439798713 -0.2631321116
3833000000.0 0.1923993379 0.09061443197 0.002192957792 0.0008365073591 0.002281183843 0.0009210142889 0.717084229 -0.3184190612
3834000000.0 0.201374203 0.07772705964 0.00238152477 0.0006487423088 0.002382780192 0.0007577891811 0.6850486994 -0.3722588167
3835000000.0 0.2090532184 0.06390596413 0.002357243095 0.0005105230375 0.002426889027 0.0004851389967 0.6477300525 -0.4245006428
3836000000.0 0.2153376788 0.04917935522 0.002579461783 0.0003141408379 0.002536031185 0.0003016886767 0.6054191589 -0.4739428168
3837000000.0 0.2200558931 0.03375029696 0.002653220901 2.895912803e-05 0.002650292357 6.462525926e-05 0.5578511357 -0.5204284901
3838000000.0 0.2232285142 0.01785590281 0.002677781042 -0.0002130477224 0.002722896403 -0.0001825164945 0.5053628683 -0.5630188449
3839000000.0 0.2245577127 0.001794954065 0.002611049684 -0.0004793908738 0.002691208618 -0.0004342089233 0.4481534958 -0.6011056535
3840000000.0 0.2245072275 -0.0142075083 0.002668543952 -0.0007807767834 0.002665446606 -0.0007033128641 0.3864790201 -0.6342148809
3841000000.0 0.2228520662 -0.0303406971 0.002624254208 -0.0009861503495 0.002643147483 -0.000927883957 0.3213306963 -0.6615555738
3842000000.0 0.2195846885 -0.04608648152 0.00256612571 -0.001357947942 0.002662364393 -0.00115374336 0.2524791062 -0.682998555
3843000000.0 0.2147241235 -0.06146159443 0.002445535734 -0.001542435843 0.002467380138 -0.001493926975 0.1803318709 -0.6978488663
3844000000.0 0.2082619965 -0.07612580607 0.002317151986 -0.001761386753 0.002373715397 -0.001782550127 0.1059388891 -0.7055959821
3845000000.0 0.2004475594 -0.08996130319 0.002078149235 -0.002107092878 0.002141951118 -0.001968017314 0.02983050793 -0.7055576281
3846000000.0 0.1913470179 -0.1028342678 0.001957044704 -0.002362851053 0.001979724038 -0.002194439061 -0.04653473571 -0.6976211713
3847000000.0 0.1811396331 -0.1143585986 0.001685335417 -0.002542488277 0.001795052667 -0.002503008582 -0.1224730313 -0.6812997614
3848000000.0 0.1699362099 -0.1248736657 0.001428573509 -0.002803630196 0.001571992645 -0.002668178175 -0.196886912 -0.6570598372
3849000000.0 0.1577259749 -0.1341131598 0.001224189997 -0.002878566505 0.001250838977 -0.002805042779 -0.2689797282 -0.624580775
3850000000.0 0.1447545588 -0.141996299 0.0008272246923 -0.003052786924 0.001070764964 -0.002924787812 -0.3380653262 -0.5838320607
3851000000.0 0.1310799867 -0.1481794151 0.0005981948925 -0.003171090269 0.0007221656851 -0.003061080351 -0.4024989307 -0.5354642806
3852000000.0 0.1169287041 -0.1527917237 0.0002342049556 -0.003250509501 0.0003479189763 -0.003158415901 -0.4608064592 -0.4810663938
3853000000.0 0.1027248353 -0.1558316519 -0.0001778156147 -0.00326183904 7.566960994e-05 -0.003180269152 -0.5136622787 -0.4196517616
3854000000.0 0.08840347081 -0.1568635407 -0.0004697726981 -0.00326800975 -0.000257035339 -0.003203608096 -0.5589832067 -0.3535845689
3855000000.0 0.07443331182 -0.1563642629 -0.0008340256754 -0.003164715832 -0.0006338870735 -0.003161644563 -0.59689641 -0.2828445413
3856000000.0 0.06076846272 -0.154097846 -0.001110026729 -0.003130451776 -0.0009595358279 -0.003139840206 -0.6266602874 -0.2081630771
3857000000.0 0.04778966308 -0.1503305764 -0.001462753746 -0.002965705469 -0.001242924016 -0.003022296121 -0.6480774879 -0.1319294318
3858000000.0 0.03594405949 -0.1447780064 -0.001804497209 -0.002787508769 -0.001565660001 -0.002916812198 -0.6610269547 -0.0543276938
3859000000.0 0.02519595623 -0.1382304586 -0.002088749781 -0.002601902466 -0.00186902273 -0.002739759395 -0.6656581759 0.02396783498
3860000000.0 0.0155463703 -0.1304328978 -0.002281940309 -0.002322523156 -0.002150002867 -0.00248740078 -0.662035048 0.1004794152
3861000000.0 0.007429230493 -0.1216039354 -0.002521095099 -0.002082786523 -0.002439177362 -0.002237328095 -0.6502951384 0.1763285985
3862000000.0 0.0008536809473 -0.1119817865 -0.002699866425 -0.001789537491 -0.002671062015 -0.001916847425 -0.6311033368 0.2492949668
3863000000.0 -0.004167630803 -0.1019389922 -0.002873221878 -0.001354197855 -0.002797934925 -0.001605019439 -0.6049551368 0.3193581602
3864000000.0 -0.007589438464 -0.09146996802 -0.002945183078 -0.001149791759 -0.002939598169 -0.001312430715 -0.573014617 0.3844063071
3865000000.0 -0.009099914692 -0.08091419897 -0.003047156846 -0.0007669804618 -0.003044271143 -0.0009902061429 -0.5343583226 0.4459243739
3866000000.0 -0.009012349881 -0.07045268447 -0.003045391291 -0.0004939953797 -0.003019623458 -0.0006700385711 -0.4915784895 0.5018632397
3867000000.0 -0.007297802251 -0.06037223827 -0.002999660093 -0.0001932368614 -0.002999466844 -0.0003929594823 -0.4442903399 0.5526678247
3868000000.0 -0.003721186658 -0.05096659373 -0.00294751185 8.811742009e-05 -0.003000352066 -4.442369027e-05 -0.3932799399 0.5983079226
3869000000.0 0.001270783134 -0.04262314219 -0.002911064541 0.0003543930943 -0.00299238856 0.0001947588316 -0.3391067386 0.6379825503
3870000000.0 0.007523837034 -0.0353405258 -0.002808599733 0.0006340100663 -0.002840426285 0.0004241240094 -0.2821594477 0.6725082372
3871000000.0 0.0147772273 -0.02930360617 -0.002730926033 0.0007938700146 -0.002781690564 0.0006726516294 -0.2240578979 0.7008385753
3872000000.0 0.02300214395 -0.02456919165 -0.002635609126 0.001027722377 -0.002730752574 0.0008957451792 -0.1638645679 0.7238981308
3873000000.0 0.03196811303 -0.02133740838 -0.00246313354 0.001273051603 -0.002581194742 0.001087078708 -0.1034165695 0.741239574
3874000000.0 0.04138108343 -0.01948756033 -0.002333353506 0.001367066288 -0.002422962338 0.001302375575 -0.0430701375 0.753157286
3875000000.0 0.05137557909 -0.0192883219 -0.002225995529 0.001541798003 -0.002277645748 0.001499835053 0.01824842207 0.7599250645
3876000000.0 0.06153114513 -0.02081918013 -0.002024705522 0.001631259336 -0.0022034836 0.00160211022 0.07793831825 0.7616928293
3877000000.0 0.07143125683 -0.02394150116 -0.001896137372 0.001860604621 -0.002050161129 0.001779959188 0.1377637684 0.7587709549
3878000000.0 0.08119858801 -0.02863894745 -0.001777826459 0.002003127942 -0.001927871723 0.001904752571 0.1956921518 0.7509170904
3879000000.0 0.09041867405 -0.03500082615 -0.00163270568 0.002150311368 -0.001785155269 0.002090139082 0.252248615 0.7387678834
3880000000.0 0.09906157851 -0.04293574728 -0.001524201361 0.002158953808 -0.001607131097 0.002232573926 0.3073361814 0.7223290134
3881000000.0 0.106793873 -0.05251551181 -0.001299329917 0.002342344727 -0.001491005765 0.002283068607 0.3607573509 0.7018838977
3882000000.0 0.113415584 -0.06331877843 -0.00105305051 0.002429463202 -0.001280783443 0.002502125222 0.4116474688 0.6773732324
3883000000.0 0.1186872795 -0.07559181602 -0.0009643943631 0.002518342109 -0.001068530255 0.002550281584 0.4599656165 0.6495357417
3884000000.0 0.1223397031 -0.08890256456 -0.0006898086867 0.002628745046 -0.0008498840034 0.002717379713 0.5059518218 0.6183590229
3885000000.0 0.1244057044 -0.1031284484 -0.0005225415225 0.002682783408 -0.0006436795811 0.002774637658 0.5491892099 0.5839484078
3886000000.0 0.1247809008 -0.1181390545 -0.0002810021106 0.002797167981 -0.0003530860122 0.002876181854 0.5900869966 0.5460163595
3887000000.0 0.1230285913 -0.1335591217 -3.691598613e-05 0.002847180236 -7.621647092e-05 0.002829335397 0.627189815 0.5058932874
3888000000.0 0.1192337647 -0.1491603328 0.0002699540637 0.00280080596 9.570061229e-05 0.002938072896 0.661655724 0.4627813777
3889000000.0 0.1133126244 -0.1645646795 0.0005264784559 0.002703797072 0.0003448630741 0.002859100467 0.6926414967 0.4172042039
3890000000.0 0.1054334715 -0.179570693 0.0007206056034 0.002729296684 0.0006916312268 0.002852850594 0.7204357982 0.3694542361
3891000000.0 0.09568317235 -0.1938449951 0.001032033935 0.002706109779 0.0009183994844 0.002787251025 0.7442904115 0.3196403142
3892000000.0 0.08404589444 -0.2071304354 0.001202267827 0.002549034311 0.001250484958 0.002763223834 0.7644711137 0.2678327322
3893000000.0 0.07073584944 -0.2193604497 0.001446909737 0.002497364767 0.001391052152 0.002661686391 0.7808256149 0.2143840642
3894000000.0 0.05581896752 -0.2300665791 0.001637787442 0.002341886051 0.001647207653 0.002455689711 0.7931827307 0.1595845371
3895000000.0 0.03968174011 -0.2393487274 0.001852823421 0.002243273193 0.00187355082 0.002312767552 0.8014028072 0.1034927833
3896000000.0 0.02238542773 -0.2468940097 0.002033412224 0.001993024023 0.002072717529 0.00214935909 0.805259645 0.04651364986
3897000000.0 0.004147131927 -0.2527076986 0.00219177315 0.001855962095 0.002231351333 0.002016194398 0.8045548201 -0.01058141259
3898000000.0 -0.01478845999 -0.2566027561 0.002409929642 0.001731148455 0.002458540024 0.001807942172 0.7994244099 -0.0686866657
3899000000.0 -0.03461199626 -0.2585537479 0.002589707728 0.001452778582 0.002492406871 0.001524210558 0.7895097136 -0.1266788305
3900000000.0 -0.05427808315 -0.2581859654 0.002628133167 0.001263890648 0.00269105006 0.001352609368 0.774897635 -0.1841041444
3901000000.0 -0.07417315245 -0.2558524116 0.00282234489 0.001002015313 0.002835825318 0.001182667562 0.7552838922 -0.2420048156
3902000000.0 -0.09363523126 -0.2515900031 0.002877653809 0.0007884813822 0.002866664203 0.0008809896535 0.7306880355 -0.2978190361
3903000000.0 -0.1126524061 -0.245330564 0.002996762749 0.0005518655526 0.003024081234 0.0007143988041 0.7007620335 -0.3528453432
3904000000.0 -0.1309356689 -0.2372231431 0.003099095775 0.0003365738667 0.003109965008 0.0004028112162 0.6661852002 -0.405350349
3905000000.0 -0.1483534127 -0.2274920291 0.003136001527 3.791864583e-05 0.003120506881 0.0001999441156 0.6261361241 -0.4561855024
3906000000.0 -0.1648866534 -0.2159132783 0.003160262946 -0.0002351689182 0.003220943501 -9.095945279e-05 0.5815366507 -0.5033067022
3907000000.0 -0.1802307069 -0.2029952726 0.003130208002 -0.0004648885515 0.003247036366 -0.0004288444761 0.5319268107 -0.547069924
3908000000.0 -0.194494918 -0.1884732469 0.00310965837 -0.0008073879289 0.003241845639 -0.0006794108194 0.4771609604 -0.5874765986
3909000000.0 -0.2072700411 -0.1726378494 0.003177940613 -0.001171051757 0.003172284923 -0.0009987303056 0.4183863103 -0.6226121446
3910000000.0 -0.2184557468 -0.1555222734 0.003048457671 -0.001427498646 0.003106822958 -0.001369953505 0.3555799425 -0.6528422241
3911000000.0 -0.2280702442 -0.1372469141 0.002924898174 -0.00172038516 0.00298951054 -0.00161704456 0.2888422012 -0.67737407
3912000000.0 -0.2356799394 -0.1181053284 0.002846119227 -0.001956036547 0.002892441815 -0.001935862121 0.2189361304 -0.695395597
3913000000.0 -0.2412656248 -0.09815472731 0.002630878938 -0.002273831051 0.002705519088 -0.002144017722 0.1468827277 -0.7067348895
3914000000.0 -0.2447030544 -0.07753102881 0.002524281619 -0.002575284569 0.002561171306 -0.002515458502 0.07244239748 -0.7109511561
3915000000.0 -0.2458675951 -0.05682153476 0.00217160047 -0.002820227528 0.002351289615 -0.002770280698 -0.002745864214 -0.7074106274
3916000000.0 -0.2446238697 -0.03632514069 0.001918894122 -0.003061629366 0.002070799936 -0.002964626998 -0.07835008949 -0.6960899488
3917000000.0 -0.2411236912 -0.01600758018 0.001740919775 -0.003304444719 0.001832606271 -0.003254943062 -0.1532609016 -0.6767382662
3918000000.0 -0.235376209 0.003321608463 0.001426452305 -0.003475222271 0.001473377342 -0.003320674179 -0.2265386879 -0.6490496212
3919000000.0 -0.2277668267 0.02169624139 0.0009930509841 -0.003629388055 0.001156287151 -0.003528042231 -0.2965933681 -0.613921268
3920000000.0 -0.2181904316 0.03901058548 0.0006589067634 -0.003760373686 0.0008259107126 -0.003694011597 -0.3635716438 -0.5705735306
3921000000.0 -0.2069912553 0.05459303402 0.0002599955769 -0.003895061556 0.0004452648864 -0.003790671937 -0.4254615903 -0.5202604014
3922000000.0 -0.194397971 0.06907471083 -0.0002158132702 -0.003880136413 6.891433713e-06 -0.003960201051 -0.4821502566 -0.4631689771
3923000000.0 -0.18019256 0.08168086918 -0.000565180555 -0.003885919228 -0.0004134953197 -0.003886702238 -0.531821847 -0.4009726783
3924000000.0 -0.1647388637 0.09246902653 -0.000972357404 -0.003881355748 -0.0008421713719 -0.003878707765 -0.5748351812 -0.3327248686
3925000000.0 -0.1481813937 0.1012380974 -0.001376358327 -0.00372444815 -0.001193725737 -0.003790385555 -0.6100664735 -0.260812637
3926000000.0 -0.1307240725 0.1076786564 -0.001794650452 -0.003549190005 -0.001554715447 -0.003574937815 -0.6372700334 -0.1855428575
3927000000.0 -0.1131363511 0.1116738349 -0.002181146527 -0.003332482884 -0.001983392052 -0.003400057321 -0.6560308933 -0.1076635866
3928000000.0 -0.09536653012 0.1133512001 -0.002437082352 -0.003024111735 -0.002389169764 -0.003161290893 -0.6663518548 -0.02913485811
3929000000.0 -0.07776047289 0.11254274 -0.002726493403 -0.00275215297 -0.002639572602 -0.002860185457 -0.6679834127 0.04982686711
3930000000.0 -0.06084624305 0.109277772 -0.002966413274 -0.002429666929 -0.002848301083 -0.00266367523 -0.6614843011 0.1275712977
3931000000.0 -0.04488733783 0.1037636037 -0.003108380595 -0.002159350784 -0.00305289845 -0.002327138791 -0.6470225453 0.203093576
3932000000.0 -0.03027981706 0.0961360782 -0.003407317679 -0.001715191524 -0.003314170986 -0.002016511979 -0.6247836947 0.2762563717
3933000000.0 -0.01699829847 0.08673975478 -0.003491995158 -0.001484183944 -0.0034674122 -0.001675059088 -0.5952723026 0.3461333609
3934000000.0 -0.00547821587 0.07574743797 -0.003528679023 -0.00112426281 -0.003497466678 -0.001393281389 -0.5596858859 0.4114003497
3935000000.0 0.004031109624 0.0632164252 -0.003704235423 -0.000782679359 -0.003647362813 -0.00101786782 -0.5185647607 0.4718218744
3936000000.0 0.01132991817 0.04954170193 -0.00368821295 -0.0004019791668 -0.00375213637 -0.0005556186079 -0.4722877145 0.5270534812
3937000000.0 0.01644654199 0.03514342381 -0.003659217386 -1.499745849e-05 -0.003766653128 -0.0002114715608 -0.4216526151 0.5767576158
3938000000.0 0.01909248717 0.02021619642 -0.003636543406 0.0003460552834 -0.003733363003 0.0001536593627 -0.3672590256 0.6206154149
3939000000.0 0.01936196908 0.005352483775 -0.003501630621 0.0007100179209 -0.003621698823 0.000452153763 -0.3096803427 0.6587578218
3940000000.0 0.01741013117 -0.009455251133 -0.003469341435 0.0009764024871 -0.003554990049 0.0007941054064 -0.2498987764 0.6910758029
3941000000.0 0.01315876096 -0.02375279982 -0.003312672023 0.001253502676 -0.003417709842 0.001113941311 -0.18915537 0.7171086708
3942000000.0 0.006593606435 -0.03712469829 -0.00317920628 0.001523553859 -0.003216716694 0.001385426498 -0.1268686205 0.7375124282
3943000000.0 -0.001906455029 -0.04962454009 -0.003002952086 0.001826889347 -0.003086978337 0.00171845546 -0.0644152239 0.7518348387
3944000000.0 -0.01248019468 -0.06072796478 -0.002725663595 0.002036948688 -0.002914733021 0.001879989519 -0.001405534917 0.7606814635
3945000000.0 -0.02479333803 -0.07011256814 -0.002523706295 0.002168638166 -0.002776597161 0.002174128313 0.0614175424 0.7639859586
3946000000.0 -0.03845645487 -0.07768219383 -0.002325856825 0.002383204643 -0.002532332903 0.002381110564 0.1227695718 0.7620847957
3947000000.0 -0.05348099396 -0.08322713112 -0.002103616484 0.002546333009 -0.002323045628 0.002458244795 0.183748439 0.7550576297
3948000000.0 -0.06944815069 -0.08668368951 -0.001908923266 0.002738997107 -0.002056953963 0.00272130454 0.2424409837 0.7432438592
3949000000.0 -0.08611179888 -0.08785461299 -0.001733937068 0.00285331835 -0.001857673284 0.0028724242 0.2993887961 0.726922247
3950000000.0 -0.1030385494 -0.0866018651 -0.001408260898 0.002998450305 -0.001564011443 0.002951613162 0.3543838561 0.7063063277
3951000000.0 -0.1200529784 -0.08287574557 -0.001199555001 0.003094862448 -0.001370715559 0.003105592914 0.4073637724 0.6813254677
