!Created with skrf (http://scikit-rf.org).
# Hz S RI R 50.0 
!freq ReS11 ImS11 ReS21 ImS21 ReS12 ImS12 ReS22 ImS22
3800000000.0 0.01432206575 0.1023084432 0.0009226392722 0.004789610859 0.0006266395212 0.004813317209 -0.2893292606 0.6778117398
3801000000.0 0.01540182717 0.1010709303 0.001332051004 0.004550185986 0.001037579495 0.004676328972 -0.2307048887 0.7071272512
3802000000.0 0.01629369333 0.1003543471 0.001710650395 0.004352818709 0.001427402487 0.00453179935 -0.1716420501 0.7304912906
3803000000.0 0.01713811792 0.1000787639 0.002101634629 0.004160941578 0.001805251464 0.004329699557 -0.1109981164 0.7483003053
3804000000.0 0.01816954277 0.1001741976 0.002396914642 0.003915254027 0.002150719287 0.004101425409 -0.05062620714 0.7604909609
3805000000.0 0.01922863349 0.1004848058 0.002638012171 0.003670173697 0.002464387799 0.003879328957 0.00918925833 0.7678632
3806000000.0 0.02034365572 0.1011852921 0.002865837887 0.003440412693 0.002733091125 0.003615425201 0.06854682416 0.7701580174
3807000000.0 0.02172110975 0.1021889753 0.003112942912 0.003039572388 0.003034878289 0.003346076002 0.1270032078 0.7675666794
3808000000.0 0.02337006666 0.1033722894 0.00323194731 0.002768300707 0.003257310484 0.003063221229 0.1847669631 0.7604324981
3809000000.0 0.02502688579 0.1047681647 0.003468033625 0.002450990956 0.003455554834 0.002697746037 0.240669772 0.7488207018
3810000000.0 0.02703621052 0.1064557373 0.003684187308 0.002138620242 0.003583776765 0.002444406739 0.2953656018 0.7329931278
3811000000.0 0.02936162613 0.1085989565 0.003738926258 0.00187897461 0.003831649665 0.002132455818 0.3473619819 0.7141495857
3812000000.0 0.03195970878 0.1109683584 0.003868191969 0.001503502484 0.003818941768 0.001791686984 0.3976581693 0.6912535015
3813000000.0 0.03531647101 0.1135621406 0.00396135496 0.001240615151 0.004080492537 0.001524053514 0.4453598261 0.6652862496
3814000000.0 0.0391247496 0.1162721471 0.003946587443 0.0009169553523 0.004133183043 0.001123647206 0.4916850626 0.6351937355
3815000000.0 0.0436357744 0.1188604116 0.004019449931 0.0006076426944 0.00418823678 0.0007893317379 0.5346735716 0.6025205752
3816000000.0 0.04867444187 0.1212275173 0.004064713605 0.0002644097258 0.004191501532 0.0004610721662 0.5754281878 0.5667464693
3817000000.0 0.05458876491 0.1234193553 0.004080660641 -7.70541883e-05 0.004211592488 0.0001985581039 0.6132960916 0.5277457091
3818000000.0 0.06084921211 0.1252241624 0.004059640225 -0.0003221018414 0.004120779689 -0.0001983702095 0.648421526 0.4864386387
3819000000.0 0.06770449877 0.1266335782 0.004036700819 -0.0006942031323 0.004180746619 -0.0005653141998 0.6800553799 0.4423650187
3820000000.0 0.07508167624 0.1277093841 0.003916899208 -0.001015119837 0.004061949439 -0.0009406215977 0.7080424428 0.3964931167
3821000000.0 0.0832509324 0.1280166737 0.003868392436 -0.001386428368 0.004034432117 -0.001254465547 0.7332080007 0.3485156688
3822000000.0 0.09181927145 0.1274039643 0.003700633999 -0.001603403245 0.003842741717 -0.001533989445 0.7546724677 0.2981054134
3823000000.0 0.1004805416 0.1261313454 0.003552214708 -0.001916317269 0.003814546159 -0.001824486884 0.7726677656 0.2458697466
3824000000.0 0.1096672192 0.1239183052 0.003357264213 -0.002211813116 0.00360002066 -0.002153882058 0.786547184 0.1925092172
3825000000.0 0.1188348606 0.1208225894 0.003134512808 -0.002426600549 0.003359827213 -0.002421044745 0.796762228 0.1373149993
3826000000.0 0.127857998 0.116731139 0.003017497715 -0.002707695356 0.003214724129 -0.002653640462 0.8028405309 0.08109001695
3827000000.0 0.1367687732 0.1118864806 0.002728706924 -0.002963072155 0.002986215753 -0.002960982267 0.8043848872 0.02442514497
3828000000.0 0.145554468 0.1061839389 0.002455990994 -0.003159393091 0.002692895476 -0.003176940139 0.8018722534 -0.03294336289
3829000000.0 0.1540994495 0.09937209485 0.002256495878 -0.003397725057 0.002441094955 -0.003403229173 0.7944860458 -0.09101501997
3830000000.0 0.162042141 0.09162614082 0.001994966296 -0.003647231497 0.002079894533 -0.003564868588 0.7827450633 -0.1499142755
3831000000.0 0.1694880724 0.08298437835 0.00175060262 -0.003709169105 0.001809239504 -0.00378863723 0.765735209 -0.2070507041
3832000000.0 0.1761380732 0.07324232749 0.001395363361 -0.003935465589 0.0015104044 -0.003902162192 0.7436406016 -0.2639707517
3833000000.0 0.1815728098 0.06302270016 0.001098614535 -0.003979456145 0.001246787375 -0.004046166316 0.7167360783 -0.3194049682
3834000000.0 0.1861276031 0.05242341471 0.0007639090763 -0.004148979671 0.0008214078262 -0.004183456767 0.6845465302 -0.3735327514
3835000000.0 0.1897544563 0.04134991312 0.000418181764 -0.004188223742 0.0005663116463 -0.004271704704 0.6472371817 -0.4257824216
3836000000.0 0.1921993941 0.03008596404 0.0001300542208 -0.00433954224 0.0002451255859 -0.004286906216 0.6046106219 -0.475491605
3837000000.0 0.193848893 0.01874769064 -0.0002430819004 -0.004326971713 -0.0002037653903 -0.004405414686 0.5572655201 -0.5211726883
3838000000.0 0.194514662 0.007182226569 -0.0005962006398 -0.00442393776 -0.0005298522883 -0.004378031939 0.5047741532 -0.5637029222
3839000000.0 0.194094047 -0.004409574149 -0.001075348933 -0.00423517637 -0.0008792299777 -0.004353214521 0.4475813806 -0.6018025931
3840000000.0 0.1925928444 -0.01577649511 -0.001450698706 -0.004187762737 -0.00128251838 -0.004269268364 0.3857665658 -0.6349581015
3841000000.0 0.190152511 -0.02695356155 -0.001884832745 -0.004090892617 -0.001695396611 -0.004178798292 0.3203267455 -0.6623206884
3842000000.0 0.1866813153 -0.03787692021 -0.002284858841 -0.003972602542 -0.00211784197 -0.004069830757 0.2514059246 -0.6835053294
3843000000.0 0.1821584553 -0.04837774493 -0.002698611934 -0.003785920097 -0.002486381214 -0.003850248875 0.179437831 -0.6982549134
3844000000.0 0.1767197549 -0.05813137717 -0.002998881275 -0.003572893795 -0.002854669001 -0.00366044906 0.1050503701 -0.7059208451
3845000000.0 0.1703877449 -0.06696303182 -0.003330339212 -0.003339286661 -0.003205033485 -0.003403263865 0.02890515886 -0.7057863195
3846000000.0 0.1634521931 -0.07499779479 -0.003725230228 -0.003035369096 -0.003531913972 -0.00308679929 -0.04737184569 -0.6976535951
3847000000.0 0.1560676247 -0.08205927023 -0.003974565305 -0.002630406758 -0.00387530122 -0.002797369845 -0.1230951399 -0.6813034361
3848000000.0 0.1482129395 -0.08821898686 -0.004268017132 -0.002265745308 -0.004062302411 -0.00239738985 -0.197625801 -0.6569224301
3849000000.0 0.1401521713 -0.09340132201 -0.004537068307 -0.001853677095 -0.00433695456 -0.00196640403 -0.2700612545 -0.6241617313
3850000000.0 0.1318142414 -0.09782602396 -0.004688746296 -0.00138404977 -0.004546600394 -0.001522297156 -0.3387598991 -0.5835426441
3851000000.0 0.1234257221 -0.1012340109 -0.004861576017 -0.0008483740967 -0.00468513323 -0.001190626412 -0.4029033482 -0.535341969
3852000000.0 0.1149776056 -0.103497228 -0.004858283326 -0.0004501116928 -0.004824779462 -0.0006498257862 -0.4614486992 -0.4807420259
3853000000.0 0.1066957042 -0.1048662911 -0.004961796105 6.650132855e-05 -0.004790106788 -0.0002603012836 -0.5138453245 -0.4194296677
3854000000.0 0.09860037267 -0.1052636344 -0.004823565949 0.0005716871819 -0.004805725999 0.0002700999903 -0.5591212511 -0.3530753136
3855000000.0 0.09110487252 -0.1048334114 -0.004715325776 0.001001971541 -0.004801355768 0.0007536817575 -0.5969684124 -0.2823594201
3856000000.0 0.08391689509 -0.1036438248 -0.004655741621 0.00153416628 -0.004631272051 0.001192837139 -0.6266253591 -0.2083376058
3857000000.0 0.07732905447 -0.1014625432 -0.004401233047 0.001951907296 -0.004474938381 0.001735144062 -0.6481663585 -0.1315020383
3858000000.0 0.07147873938 -0.09890978765 -0.004135671537 0.00236351788 -0.004318309017 0.002104219049 -0.6609554887 -0.05347546184
3859000000.0 0.06643564999 -0.09556048695 -0.003802700434 0.002651557792 -0.004016071558 0.002424879931 -0.6654146314 0.02434775176
3860000000.0 0.06233282387 -0.09178819914 -0.003563125152 0.002995419316 -0.003763302695 0.002865462331 -0.6617478132 0.101652324
3861000000.0 0.05911383778 -0.08789623412 -0.003262250451 0.003292287001 -0.003432705766 0.003046367783 -0.6501111388 0.1770092588
3862000000.0 0.05681233481 -0.08374815289 -0.002830634359 0.003602431621 -0.003086863086 0.003410798265 -0.6310021877 0.2495878484
3863000000.0 0.05551753938 -0.0797330962 -0.002517247107 0.003729582066 -0.00281283143 0.003605743404 -0.6048694849 0.3191613374
3864000000.0 0.05505220592 -0.07590609984 -0.002085115761 0.003925042693 -0.002410545014 0.003803343745 -0.5721796155 0.3851384063
3865000000.0 0.05555175245 -0.07221373771 -0.001736055012 0.004021670204 -0.002126914216 0.003955628257 -0.5339059234 0.4464183478
3866000000.0 0.05686166137 -0.06905155698 -0.001362476964 0.004090860486 -0.001705659204 0.004085295368 -0.4908843338 0.5024730934
3867000000.0 0.05889957398 -0.06657447877 -0.001027530059 0.004210395273 -0.001238195575 0.004189529922 -0.4432787895 0.5536293232
3868000000.0 0.06141228974 -0.06468828331 -0.000638159574 0.004245150834 -0.0009558946476 0.004256853834 -0.3919419646 0.5989334245
3869000000.0 0.06443031132 -0.06335510979 -0.0002537494584 0.004249296151 -0.0006138783065 0.004305630922 -0.3380685449 0.6386392329
3870000000.0 0.06785541773 -0.06290244322 0.0001064398166 0.004227982834 -0.0002085301676 0.004269775935 -0.2811552286 0.6727440811
3871000000.0 0.0716117844 -0.0630155593 0.0003808100591 0.004145416431 0.0001581097604 0.004262563772 -0.2231340408 0.7010606046
3872000000.0 0.07547419518 -0.06407092425 0.0007220046245 0.004107790533 0.0004911032738 0.004219840746 -0.1632665098 0.72394306
3873000000.0 0.07951892912 -0.06585839498 0.00109164638 0.003987479024 0.0008449587622 0.004184907768 -0.102865696 0.7413400552
3874000000.0 0.08357009292 -0.06851135414 0.0014578806 0.003872887464 0.001195448684 0.004022910725 -0.04175111279 0.7532352625
3875000000.0 0.08752993494 -0.07197242019 0.001691768644 0.003807935631 0.001553325099 0.003870397108 0.01812229678 0.7602110317
3876000000.0 0.09142562747 -0.07635638663 0.00195061299 0.003557125805 0.001864451682 0.003812451148 0.07878958434 0.7619363167
3877000000.0 0.09489677101 -0.0814759433 0.002213951666 0.003314528614 0.002155082533 0.003592875553 0.1379519701 0.7588406881
3878000000.0 0.09811805934 -0.08760858446 0.002550431527 0.003130224068 0.002443525242 0.003367627971 0.1962206066 0.7508569069
3879000000.0 0.1009001881 -0.09431870103 0.002748705912 0.002934057033 0.002665934851 0.003150349949 0.2529339194 0.7388011921
3880000000.0 0.1030649617 -0.1019773694 0.00297344476 0.002640373539 0.002951962408 0.002873974619 0.3077200353 0.7223226385
3881000000.0 0.1045652851 -0.1104914546 0.003169126809 0.002397520002 0.003132326063 0.002662871964 0.360784322 0.7017117436
3882000000.0 0.1050485373 -0.1198172068 0.003373906249 0.002154113026 0.003390123835 0.002367250854 0.4118363559 0.6774677964
3883000000.0 0.1044224426 -0.1296700198 0.003495662473 0.001863983227 0.003548245179 0.002069215756 0.460427165 0.6493173004
3884000000.0 0.1025897264 -0.1400115931 0.003660126822 0.001508745365 0.003682945622 0.001821072772 0.5065950751 0.6180992451
3885000000.0 0.09953232855 -0.1504534287 0.003801841754 0.001253138646 0.003835954936 0.001441686298 0.5493967533 0.5839076822
3886000000.0 0.09537914395 -0.1608834817 0.003808669513 0.0009235090693 0.003941695206 0.001162861125 0.5902815461 0.5459858582
3887000000.0 0.08991641551 -0.1713268359 0.003914385568 0.000571754761 0.00398775842 0.0008232194814 0.6274633408 0.5060976417
3888000000.0 0.08331606537 -0.1816423987 0.00394822238 0.0003186776012 0.00408922229 0.0004753400281 0.6618826985 0.4630102792
3889000000.0 0.07539778203 -0.1916145662 0.003856932046 -3.617854236e-05 0.004154679365 0.0001184379216 0.6928601265 0.4174363255
3890000000.0 0.06619351357 -0.2011222975 0.003940907773 -0.0003378276597 0.004072939511 -0.0002182011085 0.7203096151 0.3697692838
3891000000.0 0.0556769371 -0.2101764412 0.003910131752 -0.0007365724887 0.00408338476 -0.0005595796392 0.7445477247 0.3193921411
3892000000.0 0.04391449317 -0.2182651056 0.003840451827 -0.0009932423709 0.003992996644 -0.0008602517191 0.7648791075 0.2678691528
3893000000.0 0.0310953036 -0.2252027182 0.003828496207 -0.001330389292 0.003941350151 -0.001237356919 0.7810134292 0.2144875363
3894000000.0 0.01735213585 -0.2309185414 0.003689924488 -0.001572379493 0.003860443598 -0.001496576588 0.793477118 0.1596886695
3895000000.0 0.003011910943 -0.2354428856 0.003499648767 -0.001948823803 0.003734963248 -0.001867569867 0.8015422821 0.1035294028
3896000000.0 -0.0121092815 -0.238625706 0.003349078586 -0.002135092393 0.003556049429 -0.002049886389 0.8053150773 0.04705585144
3897000000.0 -0.02756609395 -0.2404694904 0.003232853021 -0.002408686792 0.003364883363 -0.002425711369 0.8049950004 -0.01045937324
3898000000.0 -0.04341162741 -0.2408361344 0.002934712451 -0.002687248401 0.003113162238 -0.002624093555 0.7997242212 -0.06844697596
3899000000.0 -0.05946507677 -0.2397042468 0.002778512426 -0.002870491706 0.002900628606 -0.002912738826 0.789819479 -0.126499259
3900000000.0 -0.0756926164 -0.236995775 0.002579753986 -0.003181669861 0.00267016585 -0.003151094075 0.7752924562 -0.1843904422
3901000000.0 -0.09157714248 -0.2326622911 0.002309358679 -0.003429679666 0.00246966444 -0.003394683823 0.755504787 -0.2418950175
3902000000.0 -0.1070549041 -0.2267883953 0.002050566021 -0.003576325485 0.002198130824 -0.00369322137 0.7309327126 -0.298169696
3903000000.0 -0.1218490303 -0.2195619733 0.001754102181 -0.003809844609 0.001921884716 -0.003828659886 0.7012573481 -0.3530041683
3904000000.0 -0.135969013 -0.210968265 0.001490845694 -0.004053566139 0.001611700747 -0.003961499315 0.6664121151 -0.4057191109
3905000000.0 -0.1493268311 -0.2011634707 0.001120328903 -0.004162893631 0.001326704747 -0.004178212956 0.6263785958 -0.4559520177
3906000000.0 -0.1617240161 -0.1901922836 0.0008603555616 -0.004316781648 0.0009756672662 -0.004280995112 0.5816934705 -0.5036596123
3907000000.0 -0.1732221097 -0.1780513058 0.0003920814488 -0.004354559816 0.0006232085289 -0.004387667868 0.5320490599 -0.5476049549
3908000000.0 -0.1836778969 -0.1647524722 6.517220027e-05 -0.004419725388 0.0001949402213 -0.004482168704 0.4776819348 -0.5875261706
3909000000.0 -0.1927812845 -0.1504685462 -0.0004679655249 -0.004518852104 -0.000246964395 -0.004534168169 0.4186818004 -0.6228575661
3910000000.0 -0.2003415078 -0.135282225 -0.0006956747384 -0.004485691898 -0.0006188984262 -0.00451974012 0.3555283546 -0.6531559907
3911000000.0 -0.2063319981 -0.1192956838 -0.001199433813 -0.004453113303 -0.0009821538115 -0.004485341255 0.2894382477 -0.6774337008
3912000000.0 -0.2105668336 -0.1030975971 -0.001554061659 -0.004454535432 -0.001432602527 -0.004432293586 0.2192438841 -0.6956916292
3913000000.0 -0.212931931 -0.08652271318 -0.001989445416 -0.004197042901 -0.001810245798 -0.004440893419 0.1468966901 -0.7071159267
3914000000.0 -0.2134856433 -0.07018874609 -0.002467060462 -0.004109084141 -0.002314755693 -0.004285093863 0.07272674888 -0.7111981993
3915000000.0 -0.2123868018 -0.05413958741 -0.002846991178 -0.003956154454 -0.002671175404 -0.004002911504 -0.002560138702 -0.7076628401
3916000000.0 -0.2097067684 -0.03854647593 -0.003314811271 -0.00361809181 -0.003061473137 -0.003756614169 -0.0781667456 -0.6962956282
3917000000.0 -0.2056068182 -0.02377845436 -0.003671725048 -0.003252679249 -0.003522290615 -0.003541442566 -0.1535056233 -0.6767824868
3918000000.0 -0.2000776678 -0.009789602285 -0.004042451736 -0.002953917719 -0.003771598218 -0.003087139223 -0.2259759158 -0.6496688456
3919000000.0 -0.1934748739 0.003271986196 -0.004288832191 -0.002569947857 -0.004077717196 -0.002705463441 -0.2962695956 -0.6142707521
3920000000.0 -0.185425505 0.01563880609 -0.004489000887 -0.002123949816 -0.00437944755 -0.002400986617 -0.3631922603 -0.571171664
3921000000.0 -0.1763390601 0.02677764294 -0.004785011988 -0.001748407609 -0.004556267988 -0.001886464306 -0.4253038764 -0.5209491379
3922000000.0 -0.1662073284 0.03638051797 -0.004851899575 -0.001122854534 -0.004766474944 -0.001439674525 -0.4817353189 -0.4638024784
3923000000.0 -0.1551929563 0.04458850462 -0.004987972323 -0.0007116907509 -0.004902887624 -0.0009842769941 -0.5319375992 -0.4006696707
3924000000.0 -0.1436618418 0.05117765033 -0.004993755836 -0.0002393390314 -0.004992746282 -0.0005251968396 -0.574850142 -0.3331028729
3925000000.0 -0.1314479709 0.05626693909 -0.005020269193 0.0002121397265 -0.00497695338 3.361804147e-06 -0.6103703976 -0.2605606344
3926000000.0 -0.1192371771 0.05950534614 -0.004980784841 0.0007263183943 -0.004973240197 0.000490712584 -0.6373689175 -0.1854853044
3927000000.0 -0.1071070656 0.06077473117 -0.00481564505 0.001290420769 -0.004988202825 0.0009385928279 -0.656239152 -0.1079979149
3928000000.0 -0.0953226462 0.06059918278 -0.004635674879 0.001716748462 -0.004849486984 0.001414345927 -0.6664381027 -0.02905087623
3929000000.0 -0.08428071439 0.05885499877 -0.004470513668 0.00208136416 -0.004682437982 0.001889088773 -0.6681277752 0.04933479301
3930000000.0 -0.07378702611 0.05567297398 -0.00425834069 0.002576850122 -0.004376526456 0.002285121242 -0.6615799069 0.1272698964
3931000000.0 -0.06435120106 0.05099747451 -0.003998487722 0.002922270214 -0.004144326784 0.002693611197 -0.6470460892 0.2029733696
3932000000.0 -0.05595373735 0.04531026104 -0.00368843507 0.00325829722 -0.003842303529 0.003013237845 -0.6247716546 0.2763784637
3933000000.0 -0.04873906448 0.03840061939 -0.003344191704 0.00359786558 -0.003586891573 0.003405999625 -0.5956095457 0.3458874877
3934000000.0 -0.04290981963 0.03070587579 -0.002968121087 0.003797748592 -0.003235600423 0.003672143677 -0.5601803064 0.4108711136
3935000000.0 -0.03847509623 0.02224990344 -0.00255960878 0.003984996118 -0.002842015121 0.003935143352 -0.5186863542 0.4718115709
3936000000.0 -0.03572749346 0.01322369837 -0.002263319911 0.00423643738 -0.002405391773 0.004182648379 -0.4724582732 0.5268386097
3937000000.0 -0.03464936092 0.003876903654 -0.00175516645 0.004400911275 -0.00205790787 0.004408622626 -0.421803236 0.5767082133
3938000000.0 -0.03536748886 -0.005469184983 -0.001371165854 0.004531048704 -0.001622316428 0.004557150416 -0.3674265742 0.6206532787
3939000000.0 -0.03772367537 -0.01436932315 -0.0009242189117 0.004612572957 -0.001266763546 0.00458247913 -0.3100636899 0.6588201808
3940000000.0 -0.04150339589 -0.02267863136 -0.0004969161819 0.004684272222 -0.0007839821628 0.004696913529 -0.250595808 0.6908513135
3941000000.0 -0.04662513733 -0.03047453828 -0.0001292780653 0.004646799993 -0.0003418578708 0.004739309661 -0.1892024875 0.7173500451
3942000000.0 -0.05316583067 -0.03762671073 0.000322509004 0.004557464737 8.811672888e-05 0.004756965209 -0.1267056763 0.7375853025
3943000000.0 -0.06092379242 -0.04382212979 0.0006990893162 0.004565836396 0.0006131728878 0.004644688219 -0.06427904963 0.7517998742
3944000000.0 -0.06994697452 -0.04888113302 0.001131331082 0.00444629183 0.000929377682 0.004615113139 -0.001113758073 0.760535692
3945000000.0 -0.08005993068 -0.05291844655 0.001588389627 0.004274488427 0.001338103553 0.004413966089 0.0614368692 0.7638689165
3946000000.0 -0.09106714278 -0.05525138428 0.00192836253 0.004086900037 0.001768878661 0.004211356863 0.1232380643 0.7619747597
3947000000.0 -0.1029610485 -0.05604495039 0.002173222136 0.003864890896 0.002067110967 0.00401454838 0.1837673634 0.7551448487
3948000000.0 -0.115398474 -0.05507232559 0.002530847909 0.003657823894 0.002480577212 0.003811951261 0.2428087145 0.7432063325
3949000000.0 -0.1280591786 -0.05217548675 0.00274331891 0.003387871431 0.002711278619 0.003616653848 0.299874872 0.7268902342
3950000000.0 -0.1405587643 -0.04746847013 0.003040240146 0.003140801797 0.003020854201 0.003239268437 0.3548716307 0.7061934382
3951000000.0 -0.152814582 -0.04085707634 0.003307090839 0.002870396944 0.003232034156 0.003072753549 0.4071056843 0.6814485754
3952000000.0 -0.1644408405 -0.03270557348 0.003467916744 0.002651051851 0.00348543725 0.002727614716 0.4568499625 0.6531160442
