!Created with skrf (http://scikit-rf.org).
# Hz S RI R 50.0 
!freq ReS11 ImS11 ReS21 ImS21 ReS12 ImS12 ReS22 ImS22
3800000000.0 -0.001347753103 0.05817145136 0.002565676812 0.003318119794 0.002313820878 0.003467618953 -0.2896116078 0.6780046812
3801000000.0 -0.005557598546 0.05975721783 0.002762253862 0.003111711703 0.002579767723 0.003321718657 -0.2312869132 0.7070856499
3802000000.0 -0.009484063834 0.06237374057 0.003064066404 0.002794456203 0.002833814127 0.003021897748 -0.1719078869 0.7305081844
3803000000.0 -0.01304862555 0.06610579858 0.003166080685 0.002546036849 0.003072995925 0.002819633344 -0.1114217788 0.7483905418
3804000000.0 -0.01602328755 0.07073548643 0.003430276178 0.002367627807 0.003350013169 0.002496404108 -0.05161941051 0.7607436501
3805000000.0 -0.01814597473 0.07616739783 0.003540070495 0.001963665709 0.003417185042 0.002238733694 0.008641459979 0.7679801737
3806000000.0 -0.01925697736 0.08228666481 0.003716952866 0.001668592333 0.003625064855 0.001934749191 0.06808206439 0.7702777004
3807000000.0 -0.01949101128 0.0888496923 0.003771095071 0.001432007877 0.00380988582 0.00161054288 0.1267597228 0.7678828617
3808000000.0 -0.01863326691 0.09574485945 0.003926760983 0.001097442582 0.003918183502 0.001342382049 0.1843337268 0.7607004455
3809000000.0 -0.01682973653 0.1028269297 0.00397883635 0.000731104461 0.003976169974 0.001046646852 0.240136072 0.7491914953
3810000000.0 -0.01396994572 0.1098876951 0.003959074151 0.0004976954078 0.003990673926 0.0006696122582 0.2948620021 0.7335537874
3811000000.0 -0.01018632017 0.1171623789 0.003990511876 0.000152800174 0.004140705336 0.0003468017967 0.3473111987 0.7142602233
3812000000.0 -0.00529744057 0.1241641518 0.003985587507 -0.0002040727268 0.004132237285 5.984563904e-05 0.3974491656 0.6915789411
3813000000.0 0.000463341421 0.1310973947 0.003985604271 -0.0003854022943 0.004114713985 -0.0002619441366 0.4453632236 0.6654582217
3814000000.0 0.007211837918 0.1376125486 0.003898680909 -0.0007500177599 0.004033095203 -0.0004699676938 0.4914491773 0.6355777866
3815000000.0 0.01507783588 0.1436284767 0.003879930591 -0.001033080858 0.004066809081 -0.0008659616578 0.5345001817 0.6027772153
3816000000.0 0.02378036827 0.1491176886 0.003764055436 -0.001296894741 0.003912446555 -0.001236390439 0.575319767 0.5670328455
3817000000.0 0.03353823349 0.1538233397 0.003685187548 -0.001568015665 0.003813579679 -0.001452883705 0.6132016182 0.5282643828
3818000000.0 0.04421584681 0.1575829898 0.003575794166 -0.001851801644 0.003750763135 -0.001848075888 0.6476432085 0.4869826265
3819000000.0 0.05547339097 0.1603839297 0.00344558619 -0.002083501313 0.00361121865 -0.00207794318 0.6798092127 0.4427381727
3820000000.0 0.06724668294 0.1621176491 0.003240753431 -0.002408537781 0.003512156894 -0.002338589169 0.7081608176 0.3966885738
3821000000.0 0.07977577299 0.1627167091 0.00318514742 -0.002725953003 0.003319947282 -0.002572392114 0.7332789898 0.3484382768
3822000000.0 0.09247638285 0.1621484564 0.003012964036 -0.002848718315 0.003164869035 -0.002832748927 0.7546560764 0.2985081228
3823000000.0 0.1053725332 0.1602420742 0.002817630069 -0.003126732772 0.003014566144 -0.003157841507 0.7727257609 0.2461351529
3824000000.0 0.1185611412 0.1570327278 0.002509830054 -0.0034881467 0.00275627221 -0.003391705221 0.7867008448 0.1928272532
3825000000.0 0.1318728626 0.1522222384 0.002320871921 -0.003649857361 0.002542318078 -0.003613391891 0.7965897918 0.1378112104
3826000000.0 0.1448941976 0.1459219463 0.002103206236 -0.003880893812 0.002355023287 -0.00389400241 0.8027173877 0.08168334668
3827000000.0 0.1570239514 0.1385534671 0.001766497153 -0.004016943276 0.001941130264 -0.004098189063 0.8047099113 0.0242218569
3828000000.0 0.168686375 0.1298285939 0.001517743105 -0.004272159189 0.001685437746 -0.004327928647 0.8021954298 -0.03359406626
3829000000.0 0.1795882136 0.1200252927 0.001134668128 -0.004452781286 0.001257054857 -0.004509335849 0.7946792245 -0.09098584395
3830000000.0 0.1895966381 0.1088732004 0.0008067395538 -0.004493114073 0.000894464727 -0.004615467042 0.7827623487 -0.1488390748
3831000000.0 0.1986364871 0.09681202722 0.0004569918092 -0.004780441988 0.0005467884475 -0.00473849196 0.7658467889 -0.2062209564
3832000000.0 0.2066362947 0.08368251926 8.133347001e-05 -0.004833340645 0.0001840709301 -0.00490503991 0.74397856 -0.2629504415
3833000000.0 0.2130644619 0.06983074528 -0.0003203861997 -0.004951776005 -0.0002239479218 -0.004987383727 0.7169713378 -0.3188593087
3834000000.0 0.2182334065 0.05552752352 -0.0008136759279 -0.004859858658 -0.0006559178582 -0.004993608221 0.6849094033 -0.373184006
3835000000.0 0.2219137549 0.04069124823 -0.001210244722 -0.004948229995 -0.001099362853 -0.00496087037 0.6475449204 -0.4253396198
3836000000.0 0.2242968678 0.0253931112 -0.00172261917 -0.004811714869 -0.001508833491 -0.004914022516 0.6048035622 -0.4751458004
3837000000.0 0.2251774967 0.0102720442 -0.002186317695 -0.004744710401 -0.002015590901 -0.004857481923 0.5574982166 -0.5211081872
3838000000.0 0.2245902121 -0.004990179979 -0.002563592978 -0.004622786306 -0.00251438492 -0.004745303188 0.5048813224 -0.5635758666
3839000000.0 0.2225990146 -0.02007719523 -0.003067660611 -0.004490587395 -0.002939747646 -0.004546965472 0.4477171898 -0.6017545252
3840000000.0 0.2190939188 -0.03489901606 -0.003469690448 -0.004249252379 -0.003382544732 -0.004266085569 0.386443615 -0.6344974225
3841000000.0 0.2141019255 -0.04916626263 -0.003958138172 -0.003923424985 -0.003763460089 -0.004041480366 0.3205306828 -0.6622402498
3842000000.0 0.2077557594 -0.06244621482 -0.004346651956 -0.003601162694 -0.004195830319 -0.003762233304 0.2516884804 -0.6833642654
3843000000.0 0.2003615052 -0.07519365119 -0.004685987253 -0.003293784102 -0.004588186275 -0.003400695045 0.1796588898 -0.6982758676
3844000000.0 0.1916579902 -0.08669467114 -0.005058751907 -0.002965362975 -0.004951921757 -0.002961788559 0.1050220951 -0.7057569757
3845000000.0 0.1822092086 -0.09722552714 -0.00540316198 -0.002394449664 -0.005244030152 -0.002568135737 0.02930807322 -0.7057459203
3846000000.0 0.1717298478 -0.1063584804 -0.005655200221 -0.001902172575 -0.005586215761 -0.002036242513 -0.04719085619 -0.6976413993
3847000000.0 0.1606044173 -0.1142998089 -0.005916878581 -0.001367172459 -0.005725973286 -0.001526969485 -0.1230502352 -0.6813064201
3848000000.0 0.1491519511 -0.1206865193 -0.006101228762 -0.0008581260336 -0.005925268866 -0.001066157944 -0.1972004175 -0.6569042359
3849000000.0 0.1373688877 -0.1258128375 -0.006161911413 -0.0001842772617 -0.006029159296 -0.0004653279611 -0.2695115507 -0.6242568804
3850000000.0 0.1255065501 -0.1295763938 -0.006219779607 0.0004509882128 -0.006142204162 0.0001312454842 -0.3382613063 -0.5838209149
3851000000.0 0.1136571243 -0.1319411975 -0.006211867556 0.001018316369 -0.006155239418 0.0005990935024 -0.4027955234 -0.5355201923
3852000000.0 0.1018933058 -0.1330494117 -0.006068022456 0.001653637853 -0.006123141851 0.001253717695 -0.4612999856 -0.4809790846
3853000000.0 0.09051202238 -0.1328468392 -0.005998168141 0.002180056181 -0.005981739145 0.001880782656 -0.5137711167 -0.419792954
3854000000.0 0.07965897024 -0.1314516303 -0.005715021864 0.002795092296 -0.005841758102 0.002431123052 -0.5591731071 -0.3532454175
3855000000.0 0.0693173036 -0.1287932897 -0.005453560501 0.003380688606 -0.005545627791 0.003015781753 -0.5969424844 -0.2828695683
3856000000.0 0.05978832766 -0.1250613143 -0.005126852077 0.003912851214 -0.005291369744 0.003535045544 -0.6268264055 -0.20869214
3857000000.0 0.05113930255 -0.1202654783 -0.004684804473 0.004438224714 -0.004971204326 0.004068179987 -0.6481053829 -0.132008295
3858000000.0 0.04344795272 -0.1148005133 -0.004357398022 0.004811963532 -0.004523010459 0.004476571456 -0.6610473394 -0.05390565387
3859000000.0 0.03685672581 -0.1085771438 -0.003740431974 0.005269839894 -0.004077456892 0.004912577569 -0.6656054854 0.02399012341
3860000000.0 0.03136558831 -0.1017850364 -0.003304029116 0.005621540826 -0.003636713605 0.005288409535 -0.6618014574 0.1013226028
3861000000.0 0.02705772594 -0.09452407298 -0.002681430662 0.005777045619 -0.003150218166 0.005686948076 -0.650182128 0.176952293
3862000000.0 0.02411516383 -0.08704211896 -0.002161150798 0.005973407067 -0.002563303337 0.005899005104 -0.6309852004 0.2498489604
3863000000.0 0.02230157703 -0.079459511 -0.00156336592 0.006130164955 -0.001978836022 0.006103715859 -0.6050222516 0.3191186808
3864000000.0 0.0217447076 -0.07191605374 -0.0009960718453 0.006290221587 -0.001490641036 0.006240365095 -0.5725302696 0.3850266005
3865000000.0 0.02247416042 -0.06462722751 -0.0004760375596 0.006270807236 -0.000909893366 0.006375320256 -0.5346079469 0.4459356437
3866000000.0 0.02452939749 -0.05757834645 0.0001071582592 0.006293455604 -0.0003229759459 0.006353510078 -0.4915433228 0.5019950409
3867000000.0 0.02776540257 -0.05103212865 0.0006064032204 0.006200579926 0.0002266840602 0.0063892412 -0.4438067675 0.5531845754
3868000000.0 0.03228536621 -0.04510434394 0.001253044815 0.00611452572 0.0007499117637 0.006362353452 -0.3923965991 0.5988310476
3869000000.0 0.03785172105 -0.04023660261 0.001694502076 0.00596549781 0.001377663692 0.006181118079 -0.3385045826 0.6385363318
3870000000.0 0.04442682117 -0.03651941892 0.002283473499 0.005798573606 0.001925851102 0.006035127677 -0.2821081579 0.6725489481
3871000000.0 0.05172313005 -0.03397436404 0.00263038394 0.005537432153 0.002503416967 0.005825993139 -0.223347187 0.7013395551
3872000000.0 0.05968421698 -0.03290651533 0.003195629222 0.005213696975 0.002916451311 0.00562362466 -0.163266927 0.72402434
3873000000.0 0.06795906276 -0.03310189431 0.003541236045 0.004947005305 0.003489462193 0.00523906108 -0.1031712443 0.7414538255
3874000000.0 0.0763739869 -0.03495958444 0.004056351725 0.004600630607 0.00380811817 0.004956431687 -0.04220722243 0.7533979332
3875000000.0 0.08469182998 -0.03830404775 0.004426130094 0.004222688731 0.004242673516 0.004538596608 0.01803559624 0.7601208599
3876000000.0 0.09280426055 -0.04305735585 0.00473831268 0.003746493952 0.004589957651 0.004204425029 0.07853679359 0.7618634865
3877000000.0 0.1003814563 -0.0492858949 0.004955246579 0.003414517501 0.004951277282 0.003831871552 0.1378064454 0.7586487989
3878000000.0 0.107309714 -0.05671547738 0.005238246173 0.002916048747 0.005257709883 0.003349915612 0.1958040148 0.7511179962
3879000000.0 0.1134858429 -0.06538663542 0.005410100799 0.002553230152 0.005524362437 0.002861909568 0.2525075376 0.7387517854
3880000000.0 0.1188663319 -0.07526610874 0.005609001499 0.002155077877 0.005716271233 0.002491591265 0.3075273633 0.7224484723
3881000000.0 0.123083815 -0.08623738833 0.005800719839 0.001568762586 0.005931445397 0.001937903697 0.3605606854 0.7019549079
3882000000.0 0.12597844 -0.09837810693 0.005901684053 0.001119909924 0.006056461949 0.001486701192 0.411642015 0.6776305871
3883000000.0 0.1274723858 -0.1113561953 0.005994941108 0.0006384043372 0.006171674468 0.00101165683 0.4602539837 0.6496983716
3884000000.0 0.1273388118 -0.1249458707 0.006028140429 0.0001190401454 0.00615615584 0.0005051754415 0.5063359737 0.6182289183
3885000000.0 0.1253883541 -0.1386156295 0.00609418517 -0.0002700508048 0.006254939828 9.230705473e-06 0.5499244928 0.5834468808
3886000000.0 0.1218875423 -0.1524354346 0.006052076817 -0.0006974264397 0.006271586288 -0.0005172135425 0.5900660753 0.5462387676
3887000000.0 0.116677925 -0.1663203014 0.005964271724 -0.001176783815 0.006209179293 -0.001000320772 0.6276955605 0.505980349
3888000000.0 0.109996058 -0.1797332004 0.005803119857 -0.001768694026 0.00613300968 -0.001548801665 0.6618655324 0.4627064504
3889000000.0 0.1015904099 -0.1928345341 0.00577562768 -0.002202662872 0.006018592045 -0.00207865471 0.6931219697 0.4169665734
3890000000.0 0.09174583107 -0.2052635033 0.005596590694 -0.002658396726 0.005807071459 -0.002576436847 0.7207117677 0.3692648987
3891000000.0 0.08030133694 -0.2169137014 0.005462461151 -0.003098287387 0.005713306367 -0.002998667769 0.744346261 0.3198953734
3892000000.0 0.06741277128 -0.2276924293 0.005226700567 -0.003521220759 0.005457425024 -0.0034671498 0.7646304965 0.2678270752
3893000000.0 0.05319505185 -0.237274659 0.004923588596 -0.004004104994 0.00520958798 -0.003904747078 0.7808169127 0.2149772311
3894000000.0 0.0377683863 -0.2455160832 0.004609238356 -0.004363493994 0.004880997818 -0.004367625341 0.7933903933 0.1595489325
3895000000.0 0.02145106718 -0.2522060962 0.004252998624 -0.004787908401 0.004508903716 -0.004811094608 0.8016302586 0.1035130619
3896000000.0 0.004331195261 -0.2574583943 0.003926986828 -0.005250655115 0.0041617034 -0.005230918992 0.8055528998 0.04673375139
3897000000.0 -0.01352886576 -0.2610225089 0.003431097604 -0.005597716197 0.003702144371 -0.00555652706 0.8048139215 -0.01116941651
3898000000.0 -0.03175523132 -0.2629653813 0.003002387704 -0.005919755902 0.003322535194 -0.006000956986 0.7997931242 -0.0690753551
3899000000.0 -0.05052614212 -0.2632732983 0.002457005903 -0.006165005732 0.002813279862 -0.006261732429 0.7897285223 -0.1270757371
3900000000.0 -0.06932277977 -0.2618054612 0.002026085975 -0.006458346732 0.002250348916 -0.006537155714 0.7749937177 -0.1845184352
3901000000.0 -0.08840160817 -0.258461792 0.001553705661 -0.006672560237 0.001792517141 -0.006747461855 0.7553515434 -0.2418219325
3902000000.0 -0.1072920337 -0.2531736953 0.0009249098366 -0.006886614487 0.001141279703 -0.006938209757 0.7308070064 -0.2982148909
3903000000.0 -0.1256617755 -0.2460231673 0.0004228726029 -0.007071540225 0.0005869757733 -0.007077235263 0.7010086179 -0.3532098763
3904000000.0 -0.143336311 -0.2369611875 -0.0002448158339 -0.007132509258 1.944194082e-06 -0.007218979299 0.6660246253 -0.4061076003
3905000000.0 -0.1602422446 -0.2261774445 -0.0008198266733 -0.007201007567 -0.0006246171542 -0.007300006691 0.626406908 -0.4562899691
3906000000.0 -0.1761500239 -0.2137030485 -0.001500691404 -0.007159816567 -0.001309854328 -0.007303271908 0.5814461112 -0.5036095204
3907000000.0 -0.1907989681 -0.1995741762 -0.002164254664 -0.007112637628 -0.001934301108 -0.007231871597 0.5318321586 -0.5476439071
3908000000.0 -0.2040588707 -0.183886396 -0.002832489321 -0.007019681856 -0.00263624615 -0.00714366138 0.4773856997 -0.5876169923
3909000000.0 -0.2154622227 -0.1668050958 -0.003456357168 -0.006786333863 -0.003314719303 -0.006970268674 0.4182350934 -0.6232189285
3910000000.0 -0.2250345796 -0.1487034514 -0.004119541962 -0.006539595313 -0.004000938032 -0.006698127836 0.3553043902 -0.6532976156
3911000000.0 -0.2325809896 -0.1298052965 -0.00482188724 -0.00614306191 -0.004615023732 -0.006359775085 0.2888424993 -0.6775746485
3912000000.0 -0.2381875217 -0.1104014781 -0.005469486117 -0.005794176366 -0.005260378122 -0.005987922661 0.2188105434 -0.6958167422
3913000000.0 -0.241685912 -0.0907385798 -0.006011681166 -0.00530656008 -0.005857233889 -0.005497352686 0.1464227438 -0.7069968094
3914000000.0 -0.243110016 -0.07061584067 -0.006524201017 -0.004740788136 -0.006445760839 -0.004997168202 0.07253525406 -0.7111413241
3915000000.0 -0.2424794286 -0.05104192246 -0.00709158415 -0.004099532031 -0.006873275153 -0.004380054772 -0.002984898165 -0.7077109887
3916000000.0 -0.2396818548 -0.03173187826 -0.007481856737 -0.003524865722 -0.007346011233 -0.003779485356 -0.07867507637 -0.6961187125
3917000000.0 -0.2349293828 -0.01277181509 -0.007869352587 -0.002818323905 -0.007739524357 -0.003215423785 -0.1531655788 -0.6768343935
3918000000.0 -0.2281065583 0.005063051267 -0.008202321827 -0.00206991774 -0.008017867804 -0.002440526849 -0.2261902541 -0.6495115091
3919000000.0 -0.2193360031 0.02186469129 -0.008387369104 -0.001265453291 -0.008304146118 -0.001636589295 -0.2966403365 -0.6139458189
3920000000.0 -0.2089502513 0.0373756397 -0.008535349742 -0.0005079088151 -0.008553625084 -0.0007790609961 -0.3639032245 -0.5706069647
3921000000.0 -0.1971265972 0.05114875739 -0.00864066463 0.0004132972972 -0.008584691212 3.505641871e-05 -0.4257122874 -0.5204152663
3922000000.0 -0.183909446 0.0633240331 -0.008579586633 0.001330068684 -0.008616105653 0.0008589031058 -0.4821152985 -0.4633637074
3923000000.0 -0.1696866304 0.07351141724 -0.008479544893 0.002058316488 -0.008548309095 0.001686824951 -0.5321231484 -0.4006106828
3924000000.0 -0.1549126953 0.08163853212 -0.008325551637 0.002956949873 -0.00840840023 0.002438274911 -0.5750417113 -0.3324487909
3925000000.0 -0.1394968629 0.08797355478 -0.00802166108 0.003698767861 -0.008169797249 0.003276685951 -0.61041677 -0.260256459
3926000000.0 -0.1236743703 0.09225719317 -0.007522546221 0.004544834141 -0.007855323143 0.004075101577 -0.6374837756 -0.1854114737
3927000000.0 -0.1077949628 0.09432152868 -0.007033529691 0.005330697168 -0.007409007289 0.004768360872 -0.6562776566 -0.1077800733
3928000000.0 -0.09209191054 0.09443730911 -0.006600493565 0.005949300248 -0.006896060426 0.005549926776 -0.666341126 -0.02881890286
3929000000.0 -0.07702391595 0.0924036142 -0.005962977186 0.006481013726 -0.006355180405 0.00619893847 -0.6681495309 0.04957632191
3930000000.0 -0.06252481043 0.08828243107 -0.005285933614 0.007119380869 -0.005703600124 0.006853614934 -0.661709249 0.1272501866
3931000000.0 -0.04907277599 0.08242467955 -0.004558180925 0.007608494256 -0.004978114273 0.007245528977 -0.6470015049 0.2032638143
3932000000.0 -0.03704370931 0.07479176123 -0.003887183033 0.007915719412 -0.004312779754 0.007788655814 -0.6248329282 0.2764204225
3933000000.0 -0.02631927468 0.06568759839 -0.00292666629 0.0082994923 -0.003547748784 0.008076175116 -0.5955176353 0.3461217355
3934000000.0 -0.01749982871 0.05521384152 -0.002287447918 0.008420398459 -0.002766657621 0.008332021534 -0.559969306 0.4113862715
3935000000.0 -0.01036727801 0.04370718895 -0.001496015815 0.008519013412 -0.001943342853 0.008576929569 -0.5183912516 0.4718929193
3936000000.0 -0.005235804711 0.03139811397 -0.0005889147869 0.008652037941 -0.001116184052 0.008659462444 -0.4721170366 0.5272223874
3937000000.0 -0.002256859792 0.01859337747 0.0001912902953 0.00859286543 -0.0003265321138 0.008751292713 -0.421310395 0.5768431272
3938000000.0 -0.001269538538 0.00563294167 0.001026924234 0.008465645835 0.0004999058438 0.008630272001 -0.3669546545 0.6209784698
3939000000.0 -0.002354940167 -0.007365251242 0.001794515993 0.008329128847 0.001194871962 0.008590307087 -0.3094809949 0.6589280172
3940000000.0 -0.005557075143 -0.02016125072 0.00251909974 0.008121708408 0.001944124233 0.008357036859 -0.2499288768 0.6911712804
3941000000.0 -0.01081313286 -0.03235743491 0.003068670398 0.007780814543 0.002773908665 0.008053205907 -0.1890311539 0.7173213268
3942000000.0 -0.01801820658 -0.04371867989 0.003859110642 0.007473533507 0.003471197328 0.007782090455 -0.1268137544 0.7375187117
3943000000.0 -0.02722493373 -0.05391552183 0.004440170713 0.006969707552 0.004090166185 0.007468375843 -0.06401629001 0.752005216
3944000000.0 -0.0379678309 -0.06253330804 0.004967649467 0.006596941501 0.004740916658 0.006918779109 -0.001079216134 0.7606569076
3945000000.0 -0.05015991256 -0.06962304111 0.005473099183 0.006147216074 0.005332260393 0.006476887502 0.06155507639 0.7639693547
3946000000.0 -0.06348776072 -0.07490997181 0.005964578595 0.005558224861 0.005873729009 0.005884480663 0.122874774 0.7621686233
3947000000.0 -0.07777219266 -0.07828573515 0.006371825933 0.005065512843 0.006199031137 0.005417493172 0.1840432584 0.7550725091
3948000000.0 -0.09266931564 -0.07969357503 0.006736496929 0.004453876521 0.00667844573 0.004833794665 0.2430227399 0.7433885702
3949000000.0 -0.1080545336 -0.0791543556 0.006981733721 0.003890142776 0.006996626966 0.004250478465 0.2997767925 0.7269084191
3950000000.0 -0.1237661019 -0.07653472304 0.00729067577 0.003225130262 0.007292261347 0.00362610491 0.355021745 0.706136992
3951000000.0 -0.139444083 -0.07171692457 0.007504261564 0.002636112506 0.007538372651 0.002967162989 0.4073627591 0.6816626601
3952000000.0 -0.1549288183 -0.0645933571 0.007672700565 0.001964880852 0.007757409476 0.002308205003 0.4572124183 0.6532837515
