!Created with skrf (http://scikit-rf.org).
# Hz S RI R 50.0 
!freq ReS11 ImS11 ReS21 ImS21 ReS12 ImS12 ReS22 ImS22
3800000000.0 0.02846788615 0.1180204 0.001409772551 0.002990997396 0.001253057504 0.003071316984 -0.2920545936 0.6770033941
3801000000.0 0.0314492695 0.1178937339 0.001672589686 0.002801538445 0.001464504399 0.002955627162 -0.2328926325 0.7067205444
3802000000.0 0.03460537642 0.1180565453 0.001858212636 0.002679302357 0.001660711132 0.002781844931 -0.1732870191 0.7302530558
3803000000.0 0.03802969679 0.1181081266 0.001991874538 0.00241248752 0.001932076178 0.002646064386 -0.1130781546 0.7483408175
3804000000.0 0.04148536921 0.1183015042 0.00227210531 0.002264376963 0.002049203264 0.002414717805 -0.05312619731 0.7607812659
3805000000.0 0.04494835064 0.1183649771 0.002303001471 0.002063281136 0.002213537693 0.00219613174 0.006727396045 0.7681743507
3806000000.0 0.04892149195 0.1184419529 0.002403147286 0.001824686187 0.00236851396 0.001980520319 0.06584363431 0.7707034182
3807000000.0 0.05298745632 0.1184496941 0.002532057231 0.001601576922 0.002477260772 0.001787593006 0.1245646775 0.7683017788
3808000000.0 0.05710227787 0.1181913035 0.002557293978 0.001497553894 0.002516598674 0.001602955046 0.1823850721 0.761148656
3809000000.0 0.06124164537 0.1178877005 0.002601613291 0.001260285382 0.002647785237 0.001351792715 0.2381976694 0.7497325481
3810000000.0 0.06541386992 0.1175240815 0.002706954954 0.001014082576 0.002708819928 0.001187943621 0.2924170792 0.734627817
3811000000.0 0.06958124787 0.1173032141 0.002675322583 0.0008092722273 0.002805426717 0.0009968138766 0.3452907205 0.7153148172
3812000000.0 0.07403717935 0.117263313 0.002759089926 0.0005810023868 0.002805849072 0.0007497284096 0.3957617283 0.6927294885
3813000000.0 0.07878253609 0.1173625847 0.002801110735 0.0003667199635 0.002900185063 0.0005439245724 0.4442058206 0.6661162656
3814000000.0 0.08392511308 0.1172074037 0.002790829632 0.0002368261194 0.002869023709 0.0003675367916 0.490047425 0.6366442306
3815000000.0 0.08956012875 0.1169217436 0.00283307489 6.119652971e-05 0.002871699398 0.000161975986 0.5333513618 0.6040319681
3816000000.0 0.09563174099 0.1163350281 0.002804985503 -0.0001783150801 0.002875911538 -7.299703429e-05 0.5738712549 0.5683737717
3817000000.0 0.1020957008 0.1153943183 0.002747588791 -0.0003969162062 0.002867080504 -0.0002276389278 0.6116886735 0.5296138314
3818000000.0 0.1089683622 0.1138035457 0.002744031837 -0.0006212423323 0.002927695867 -0.0005817706115 0.6464511156 0.4887389323
3819000000.0 0.1159610376 0.1116933803 0.002714629285 -0.000760991883 0.00279453001 -0.0007188726449 0.6783287525 0.4448282845
3820000000.0 0.1236075982 0.1086785335 0.002656504046 -0.001074833446 0.002792193089 -0.0009581266786 0.7069651484 0.3986736052
3821000000.0 0.1308536083 0.1049471973 0.002548291348 -0.001264241524 0.002659257501 -0.001121466514 0.7322109938 0.350607786
3822000000.0 0.1379568428 0.1004924509 0.002403566614 -0.001406576368 0.002580378903 -0.001363992225 0.7537687421 0.3002807208
3823000000.0 0.1448746771 0.09566665071 0.002305632923 -0.001599572366 0.002472619293 -0.001554849674 0.7718167901 0.2481086672
3824000000.0 0.1518093944 0.09004791372 0.002216336317 -0.001734881895 0.002337774727 -0.001774406643 0.785859406 0.1948518132
3825000000.0 0.1585305929 0.08375474528 0.002088730922 -0.001921438845 0.002239993075 -0.001913683838 0.7961471081 0.1399485301
3826000000.0 0.1647171229 0.07679576233 0.001994694117 -0.002087307395 0.002103135688 -0.002127025276 0.8022281528 0.08368713592
3827000000.0 0.1708121002 0.06923658089 0.001862165635 -0.002213499276 0.00189023884 -0.002303149085 0.8043974042 0.02654202324
3828000000.0 0.1761574 0.06115897145 0.001650993712 -0.002399227582 0.001738053048 -0.002402925165 0.8017414808 -0.03073797162
3829000000.0 0.1811115146 0.05231126799 0.001453691395 -0.002494258573 0.001548060332 -0.002503030002 0.7947559953 -0.08911327556
3830000000.0 0.185143739 0.04330456478 0.001210989081 -0.002645895584 0.001308401115 -0.002647005953 0.7828520536 -0.1472088745
3831000000.0 0.1887177825 0.03361045011 0.001074766275 -0.002742878394 0.001135422965 -0.002769637853 0.7659137249 -0.2047265635
3832000000.0 0.1913911849 0.02352222793 0.0008105575689 -0.002802718198 0.0009270190494 -0.00290607661 0.74429667 -0.2616056969
3833000000.0 0.1930581182 0.01351769253 0.0005633030669 -0.002897425788 0.0007243668661 -0.002900515217 0.7175952792 -0.3171243115
3834000000.0 0.1939526945 0.003274022598 0.000448023522 -0.0029905017 0.0005222255131 -0.003022560617 0.685597837 -0.3714699969
3835000000.0 0.1941654831 -0.00694853281 0.0002345271059 -0.003061143216 0.0002138829586 -0.003067159792 0.6482218504 -0.4237772074
3836000000.0 0.193558082 -0.01700113572 -0.000102279053 -0.00308868615 9.071000932e-06 -0.003072373336 0.6061629653 -0.4729020588
3837000000.0 0.1922486424 -0.02699049657 -0.000322957756 -0.003078426234 -0.0002539973357 -0.003130021971 0.5587334037 -0.5194832437
3838000000.0 0.1903226376 -0.03687134674 -0.0006226538098 -0.003153044963 -0.0005391092272 -0.003143156646 0.5061213374 -0.5622825994
3839000000.0 0.1877670586 -0.04663595387 -0.0008746068343 -0.003072832013 -0.0007478489424 -0.003133941907 0.449108839 -0.6004385447
3840000000.0 0.184493497 -0.05621909418 -0.001114269951 -0.003076911438 -0.001098241541 -0.003041568445 0.3878042102 -0.6334456279
3841000000.0 0.1804766804 -0.06556773987 -0.001448472496 -0.002929926384 -0.001397703425 -0.003010150278 0.3223799169 -0.6612413294
3842000000.0 0.1758102477 -0.07452816284 -0.001677329652 -0.002851878759 -0.001625364064 -0.002951135859 0.2534626126 -0.6826970502
3843000000.0 0.1702498496 -0.08313159555 -0.001955882413 -0.002795034554 -0.001877530362 -0.002760818927 0.1810855418 -0.6978116024
3844000000.0 0.1641177684 -0.09121592071 -0.002282403409 -0.002613917226 -0.002160656033 -0.002591830911 0.1066453606 -0.7056510813
3845000000.0 0.1573512703 -0.09851495415 -0.002597326878 -0.002340070903 -0.002426700201 -0.002400550991 0.03116905503 -0.705570683
3846000000.0 0.1499190778 -0.1051539205 -0.002809955971 -0.002155045047 -0.002668342786 -0.002256369218 -0.04560415447 -0.6978200647
3847000000.0 0.1420755684 -0.1109047465 -0.002967676148 -0.001921645715 -0.002836734988 -0.001998932101 -0.1214241832 -0.6817265045
3848000000.0 0.1341244429 -0.1158202586 -0.003228522372 -0.00158082915 -0.003074233187 -0.001639619004 -0.1963962615 -0.6572149017
3849000000.0 0.1258067042 -0.119924909 -0.003363412339 -0.001362637035 -0.003248041961 -0.00146403478 -0.2687951326 -0.624652299
3850000000.0 0.1173561141 -0.1231987483 -0.003475595964 -0.0009867048357 -0.003361415584 -0.001097340719 -0.3373134136 -0.5845000132
3851000000.0 0.1088502184 -0.125625824 -0.003577243537 -0.0005809966824 -0.003532604082 -0.0007083758246 -0.4015683532 -0.5365064431
3852000000.0 0.1003387049 -0.1270303302 -0.003578070551 -0.0002746981918 -0.003497788683 -0.0004047199036 -0.4603354633 -0.4818683202
3853000000.0 0.0922004208 -0.1276524579 -0.003631916828 0.0001212744319 -0.003552355571 -5.794298704e-05 -0.5131124258 -0.4207955221
3854000000.0 0.08434211463 -0.1272892127 -0.003553245682 0.0005006818101 -0.00349690672 0.0002786360565 -0.5585978627 -0.3545712108
3855000000.0 0.0771439597 -0.1264707939 -0.003468375886 0.000812168757 -0.00348126702 0.0005572145456 -0.5965736508 -0.2834127855
3856000000.0 0.07030741125 -0.1250367043 -0.00332980766 0.001170428353 -0.003345837118 0.0009474752005 -0.6265040636 -0.2095160705
3857000000.0 0.06383081526 -0.1231443037 -0.003206125693 0.001424847753 -0.00322901085 0.001211502356 -0.6481601 -0.1329081939
3858000000.0 0.05783600733 -0.1205573714 -0.003065745812 0.001766277128 -0.003098704154 0.001497264835 -0.6611235738 -0.0551744967
3859000000.0 0.05242337286 -0.1175003632 -0.002788671292 0.002003525849 -0.002905918984 0.001794647193 -0.6657739282 0.02278206272
3860000000.0 0.04770204425 -0.1138784342 -0.002585390816 0.002202319447 -0.002744709142 0.001983154798 -0.6618826985 0.1003521505
3861000000.0 0.04382262379 -0.1099464347 -0.002369513037 0.002338377526 -0.002541901777 0.002257419284 -0.6502881646 0.1759857746
3862000000.0 0.04068988189 -0.1058057161 -0.00219124672 0.00251186383 -0.002317816485 0.002424739767 -0.6316074729 0.2486352295
3863000000.0 0.03846285492 -0.1015062122 -0.001833836082 0.002694572089 -0.00197939761 0.002530670958 -0.6053196192 0.3184749297
3864000000.0 0.03701274842 -0.09717406182 -0.001579907141 0.002805038821 -0.001859039767 0.002701241756 -0.5730655193 0.3839837771
3865000000.0 0.03659645095 -0.09277097857 -0.001314114081 0.002894170117 -0.001626190031 0.002732403344 -0.5350558162 0.4452501052
3866000000.0 0.03724520281 -0.08868920347 -0.001156596583 0.002994262613 -0.001314254478 0.00287652947 -0.4921467006 0.5013058759
3867000000.0 0.03887503594 -0.08533026787 -0.0008656467544 0.002980964258 -0.001078673638 0.003013894195 -0.4448170066 0.5522664364
3868000000.0 0.04118194804 -0.08267586931 -0.0006040257285 0.003015740542 -0.000827813521 0.003034041263 -0.3935857117 0.5978579347
3869000000.0 0.04408632964 -0.08061576092 -0.0003663420503 0.00303205708 -0.0005519395345 0.003112828126 -0.3395357728 0.6375962993
3870000000.0 0.04751952738 -0.0796170404 -0.0001220195554 0.003001601668 -0.0003426564508 0.003127122065 -0.2824553847 0.6720869271
3871000000.0 0.05119718984 -0.07951602241 9.147322271e-05 0.003090820741 -0.0001410997793 0.003118528519 -0.2242807597 0.7006843261
3872000000.0 0.05495600775 -0.08042187222 0.0003515749122 0.003059381619 0.000175684283 0.003142481204 -0.1644727737 0.7236388773
3873000000.0 0.05861949176 -0.08218925564 0.0005776899634 0.003004027298 0.0004034861631 0.003095175838 -0.1041644588 0.7409892465
3874000000.0 0.062161915 -0.08462916794 0.0007924836245 0.002841907321 0.0006747444859 0.003051308449 -0.04340111464 0.7528726722
3875000000.0 0.06574027985 -0.08796360074 0.0009954762645 0.002860757755 0.0009226262919 0.002978534438 0.01741801389 0.759837196
3876000000.0 0.06910194457 -0.09217861762 0.001274908544 0.002694394672 0.001183992019 0.002886735601 0.07740606368 0.76165461
3877000000.0 0.0722110644 -0.09735780714 0.001447437098 0.002613191027 0.001368954661 0.002788458252 0.1366488487 0.7586354834
3878000000.0 0.07471843064 -0.103312248 0.001689400407 0.002519642701 0.001626293408 0.002634998877 0.1947689056 0.7509422143
3879000000.0 0.07652585953 -0.1101470325 0.001899255905 0.002302183304 0.001805733074 0.002514207968 0.2518025041 0.7387054963
3880000000.0 0.07757236809 -0.1177881441 0.002044957131 0.002130442765 0.002040597843 0.002318776911 0.3069428504 0.7221123972
3881000000.0 0.07765009999 -0.1260316228 0.00228520087 0.001949554775 0.002190796193 0.002169722924 0.359714359 0.7018066406
3882000000.0 0.07672084868 -0.1347031827 0.002345231595 0.001782133477 0.002339620842 0.001966715092 0.4106618762 0.6774573024
3883000000.0 0.07471141964 -0.1436539951 0.00254887389 0.001519817859 0.002526937984 0.001708462602 0.4595913291 0.6493482864
3884000000.0 0.0717260614 -0.152795155 0.002526066033 0.001381771755 0.002627862617 0.001489298651 0.5056065321 0.6182299767
3885000000.0 0.06769720465 -0.1619770743 0.002721020952 0.001149791293 0.002760930918 0.001312220702 0.5489342809 0.5837886772
3886000000.0 0.0627220273 -0.171255078 0.002762485994 0.0008760968922 0.002822935348 0.001051121275 0.5893451571 0.5460837348
3887000000.0 0.05650674924 -0.1806807624 0.002807889134 0.0006517748698 0.002940904582 0.0008402049425 0.626773715 0.506106913
3888000000.0 0.04896693304 -0.1899474508 0.002916046418 0.0005129688652 0.002925656037 0.000615288096 0.6613066196 0.4630991602
3889000000.0 0.04009189084 -0.1988199945 0.002946423367 0.0002701923659 0.00297867367 0.0003838139819 0.6925047636 0.4170690176
3890000000.0 0.03001087531 -0.2069554956 0.002865236485 3.972111881e-05 0.002984447172 0.0001131979952 0.7199650407 0.3694272198
3891000000.0 0.01841999777 -0.214516047 0.002900880296 -0.0002065969747 0.002962793689 -0.0001041812502 0.7440104485 0.3194695069
3892000000.0 0.005774184596 -0.2209378797 0.002858698834 -0.0004719879653 0.002972333692 -0.0003547699016 0.7641783357 0.2678004882
3893000000.0 -0.007941590622 -0.2260154168 0.002880771644 -0.0006298121298 0.00293464493 -0.0005941057461 0.7804203629 0.2146830179
3894000000.0 -0.02222762071 -0.2298018407 0.002752540633 -0.0009068718646 0.002928803908 -0.0008060146938 0.7926892638 0.1599391914
3895000000.0 -0.03722318262 -0.2322382036 0.002709020395 -0.001038167742 0.002826648066 -0.00103346887 0.8008935452 0.1043065223
3896000000.0 -0.05256592855 -0.2332566522 0.002661256352 -0.001299774391 0.002764693694 -0.001220624545 0.8047303557 0.04723383886
3897000000.0 -0.06829547137 -0.2327547581 0.002513829386 -0.00144763873 0.002603004687 -0.001395528438 0.8042498827 -0.01028874457
3898000000.0 -0.08430945128 -0.2308389925 0.002455795649 -0.001625605393 0.002567874501 -0.001596541144 0.7991001606 -0.06814273274
3899000000.0 -0.1001596004 -0.2272057936 0.002312576631 -0.001850792789 0.002463920275 -0.001814639312 0.7892921567 -0.1261558312
3900000000.0 -0.1158287004 -0.2218778885 0.002204777906 -0.002006960567 0.002239806345 -0.001958112 0.7746019959 -0.183923628
3901000000.0 -0.1311015636 -0.2151599617 0.00206263666 -0.002113211667 0.002250539605 -0.002194888191 0.7548986673 -0.2410193846
3902000000.0 -0.1456952542 -0.2068745825 0.001918355469 -0.002402795479 0.002001301851 -0.002327031689 0.7303760648 -0.2975255037
3903000000.0 -0.1594565958 -0.1971904426 0.001699470449 -0.00262645795 0.001851323061 -0.002555509564 0.7006884217 -0.3521623049
3904000000.0 -0.172379896 -0.1860749092 0.001517285127 -0.002769062063 0.001692883437 -0.00273604854 0.6659685373 -0.4053004437
3905000000.0 -0.1840323508 -0.1738388095 0.001330544474 -0.002926034387 0.001411879668 -0.002879925771 0.6259732246 -0.4555879527
3906000000.0 -0.1944337189 -0.1605877796 0.001066773082 -0.003049199935 0.001274555339 -0.003002589103 0.5813589692 -0.5029359262
3907000000.0 -0.2035021633 -0.1467183773 0.0008603002061 -0.003140029497 0.0009607843822 -0.00314136548 0.5316911936 -0.5469101963
3908000000.0 -0.2113478929 -0.1319003789 0.0004984601983 -0.003261361504 0.0007278614212 -0.003250139533 0.47767362 -0.5865447612
3909000000.0 -0.2178302705 -0.1166134843 0.0003293086193 -0.003324161517 0.0003920448653 -0.003304732498 0.4185767472 -0.6223188497
3910000000.0 -0.2229034007 -0.1007154141 -3.840560748e-05 -0.003361498239 0.0001009023617 -0.00332234567 0.3555417955 -0.6524072607
3911000000.0 -0.2263609916 -0.08450163228 -0.0002807490819 -0.003397078952 -0.0002251681144 -0.003418263514 0.2892788053 -0.676736274
3912000000.0 -0.2284388095 -0.06805314633 -0.0005977086839 -0.003395135282 -0.0004726421612 -0.003396961605 0.2198223323 -0.6947894104
3913000000.0 -0.2286861241 -0.05134772192 -0.0009787394665 -0.003358250018 -0.0008069995674 -0.003390963655 0.1470489204 -0.7064835762
3914000000.0 -0.2272366732 -0.03512142601 -0.001256012358 -0.003352537286 -0.001158257946 -0.003364845878 0.072605744 -0.7106848214
3915000000.0 -0.2241832167 -0.01923940379 -0.001587402192 -0.00329219806 -0.0013799523 -0.003298441879 -0.002609922783 -0.707189226
3916000000.0 -0.2197514325 -0.004219403003 -0.001897698268 -0.003050874686 -0.001776599209 -0.003132438753 -0.07832848281 -0.695810451
3917000000.0 -0.2138750106 0.01027250664 -0.002170465887 -0.002971131355 -0.002016928047 -0.002974663861 -0.1526564509 -0.676536119
3918000000.0 -0.2067850232 0.02371152272 -0.002402889077 -0.002747501945 -0.002340796636 -0.002758046146 -0.2257822156 -0.6492193434
3919000000.0 -0.1985698342 0.03639823458 -0.002737688599 -0.002494592452 -0.002595922677 -0.002566755051 -0.2962956131 -0.6138192688
3920000000.0 -0.189404726 0.04728236159 -0.002919410821 -0.002223314252 -0.00281484006 -0.002404717728 -0.3630745411 -0.5707341725
3921000000.0 -0.1791898608 0.05748351559 -0.003101454116 -0.001960169058 -0.003108758712 -0.002103853272 -0.4249026179 -0.5207871401
3922000000.0 -0.1680009067 0.06634255039 -0.003272631904 -0.001696902909 -0.003219271079 -0.001813441166 -0.4812583327 -0.463729801
3923000000.0 -0.1563427895 0.07369797244 -0.003488741117 -0.001411051606 -0.003359665861 -0.001557916636 -0.531527102 -0.4008463761
3924000000.0 -0.1441206634 0.07955774124 -0.003578889417 -0.001030653599 -0.003537145443 -0.001149688265 -0.574545145 -0.3328822671
3925000000.0 -0.1315822899 0.08387724975 -0.003686336335 -0.0006517075817 -0.003670746926 -0.000830643985 -0.6099665165 -0.2607455223
3926000000.0 -0.1190509051 0.08669458933 -0.003719975939 -0.0002777538903 -0.003735158592 -0.0005290786503 -0.6371176243 -0.1854085091
3927000000.0 -0.1065745354 0.08762170987 -0.003748459276 6.695056072e-05 -0.003773454344 -0.0001473655429 -0.6559056044 -0.1078149023
3928000000.0 -0.09433673322 0.08712058675 -0.003709562588 0.0003875328694 -0.003788396949 0.0001717027335 -0.6660867929 -0.02945267597
3929000000.0 -0.08279560506 0.0849778114 -0.003657790367 0.0007601615507 -0.003664097982 0.0005739933113 -0.6680409312 0.04928969144
3930000000.0 -0.07209156454 0.08141559652 -0.003502162406 0.00105569174 -0.003628589911 0.0008798649651 -0.6612631083 0.1272745849
3931000000.0 -0.06222578511 0.07674704832 -0.003359574825 0.001481770305 -0.003501746571 0.001233215444 -0.6467719674 0.2031600739
3932000000.0 -0.05346479639 0.07087149168 -0.003261201782 0.001729551703 -0.003373445012 0.001562739722 -0.6248115301 0.2761424971
3933000000.0 -0.04589790851 0.06391226705 -0.003025567625 0.001966484124 -0.003179069841 0.0018405749 -0.5958119035 0.3454220809
3934000000.0 -0.03963792324 0.05606112459 -0.002822624054 0.002259845845 -0.002973353956 0.002069295617 -0.559843719 0.4110348321
3935000000.0 -0.03487939388 0.04733915881 -0.002600216772 0.002460413612 -0.002746190876 0.002347125905 -0.5188692808 0.4712145716
3936000000.0 -0.03168401122 0.03817388382 -0.002353221178 0.00260840659 -0.002504549688 0.002590455813 -0.4725384116 0.5265945042
3937000000.0 -0.03046023659 0.02892749604 -0.002102812054 0.002803988755 -0.002312828787 0.002756284317 -0.4218548238 0.5763535634
3938000000.0 -0.03096127324 0.01962832852 -0.001841938007 0.002946895082 -0.001914032036 0.002906085458 -0.3671668172 0.6205223801
3939000000.0 -0.03312342614 0.01082954222 -0.001594070694 0.003074254841 -0.001697177766 0.003005023114 -0.3101142943 0.6585224377
3940000000.0 -0.03669528291 0.002705201423 -0.001247682259 0.003097373294 -0.001440336229 0.003174800891 -0.2506011724 0.6909753336
3941000000.0 -0.04151918367 -0.004630692427 -0.001078140223 0.003213015152 -0.001246501226 0.003316978225 -0.1892303824 0.7169768548
3942000000.0 -0.04753761739 -0.01129784368 -0.0008437673096 0.003288728418 -0.0009081735043 0.00327431201 -0.1278221756 0.7369861167
3943000000.0 -0.05487345159 -0.01695761438 -0.0004807740625 0.003317575436 -0.0006235654582 0.003355057444 -0.06439717859 0.7517662651
3944000000.0 -0.06318991631 -0.02155632066 -0.0001837476157 0.003377402434 -0.0003363683936 0.003417775268 -0.001582413563 0.760576051
3945000000.0 -0.07251957059 -0.02480997101 0.0001431417768 0.003359994851 -3.764784924e-05 0.003341747914 0.06064968556 0.7639146594
3946000000.0 -0.08266805112 -0.02656659283 0.0003843332233 0.003332229564 0.0001843039499 0.003383619012 0.1223275587 0.7620114939
3947000000.0 -0.09338315576 -0.02679513888 0.0006138121826 0.003295296105 0.0004232743231 0.003319992917 0.1828754693 0.7548982527
3948000000.0 -0.104514271 -0.02523117345 0.0008587900666 0.003187597496 0.0007832132978 0.003271306166 0.2422686219 0.7433700113
3949000000.0 -0.1157141104 -0.02189189483 0.001119040302 0.003096773755 0.001002154779 0.00323438039 0.299610883 0.7268547514
3950000000.0 -0.1267326325 -0.01690772902 0.00135234592 0.003048328916 0.001257812255 0.003094792832 0.3541667759 0.7064505894
3951000000.0 -0.1373588294 -0.01018645611 0.001614656299 0.002906157402 0.001429595519 0.002938027028 0.4066783786 0.6817898341
