!Created with skrf (http://scikit-rf.org).
# Hz S RI R 50.0 
!freq ReS11 ImS11 ReS21 ImS21 ReS12 ImS12 ReS22 ImS22
3800000000.0 0.02593272738 0.03652061045 0.002402090468 0.003781208303 0.00221743877 0.003978635184 -0.2900817394 0.6780014846
3801000000.0 0.0185845606 0.03422302455 0.002648519585 0.003521886421 0.002489769133 0.003767915303 -0.2310281694 0.707176798
3802000000.0 0.01089848299 0.03363195304 0.003000308527 0.003299647709 0.002832913073 0.00347974943 -0.1713981777 0.7304623717
3803000000.0 0.003236368997 0.03452428684 0.003241588362 0.003034879919 0.003081617644 0.003291453701 -0.1117291749 0.74840575
3804000000.0 -0.004105488304 0.03695434926 0.003360308008 0.00265607168 0.003259398974 0.002978188219 -0.05100157857 0.7607748923
3805000000.0 -0.01102995872 0.04075821662 0.00357845542 0.002436966868 0.00350894127 0.002694647759 0.0089902943 0.7679517874
3806000000.0 -0.01721970737 0.04592297602 0.003744988702 0.00209055352 0.003710504854 0.002320781583 0.06846854836 0.7704061366
3807000000.0 -0.02257271111 0.05228540604 0.003844280494 0.001803959953 0.003819887759 0.002010438126 0.1271235794 0.767667669
3808000000.0 -0.02698833682 0.05986320168 0.003907411359 0.001418558299 0.003976173699 0.001644008909 0.1843780726 0.7604132938
3809000000.0 -0.02999806963 0.06837718107 0.004043415654 0.001042007469 0.004067559261 0.001366462559 0.2404773384 0.7491602719
3810000000.0 -0.03158651292 0.07760148669 0.004118841141 0.0008298816974 0.004164313432 0.001016893075 0.2946968973 0.733367484
3811000000.0 -0.03203842789 0.08738951706 0.004089019261 0.0003891525848 0.004105996341 0.0006555918371 0.3471291959 0.7142868677
3812000000.0 -0.03108286671 0.09750163612 0.004051372409 0.0001054300083 0.004274869803 0.0003443683963 0.3974377513 0.691455497
3813000000.0 -0.02862075903 0.1079576954 0.00408570189 -0.0001907924161 0.004252410028 6.766203296e-05 0.445248127 0.6653533964
3814000000.0 -0.02471083589 0.1183919113 0.004074176773 -0.0005097328103 0.004218703602 -0.0003061224415 0.4910012186 0.6357363035
3815000000.0 -0.01933942921 0.1287141337 0.004052167758 -0.0008601342561 0.004250120372 -0.0006208203849 0.5348414779 0.6025246079
3816000000.0 -0.01215678826 0.1388697202 0.003948714118 -0.001097530941 0.004125379492 -0.0008749060798 0.5752085447 0.5667805377
3817000000.0 -0.003584700404 0.1483656574 0.00393766351 -0.001371679478 0.004025448579 -0.001332525513 0.6131013036 0.5278398736
3818000000.0 0.006500817835 0.157102264 0.003749456257 -0.001687568845 0.003983195871 -0.001509547466 0.6478094459 0.4869215112
3819000000.0 0.0182205867 0.1648229543 0.003652928164 -0.00191564241 0.003814711235 -0.001949144644 0.6796211004 0.4428777961
3820000000.0 0.03104468994 0.1713887972 0.003474287689 -0.002270699712 0.003653387539 -0.002272718586 0.7081091404 0.3967426213
3821000000.0 0.04499497265 0.1766021297 0.003339403309 -0.002473916626 0.003525523469 -0.002540725749 0.7334600687 0.3483538251
3822000000.0 0.05993143842 0.1803520626 0.003167149378 -0.002780735493 0.003352267202 -0.002747459104 0.75453794 0.2982290666
3823000000.0 0.07582700253 0.18227348 0.002988479566 -0.003051460721 0.003134366358 -0.003058927832 0.7724722624 0.2464966145
3824000000.0 0.09241341054 0.1823283639 0.00273377425 -0.00333733228 0.00292104343 -0.00327449129 0.7865704298 0.1925808154
3825000000.0 0.1091825664 0.1806015225 0.002497499576 -0.003567665583 0.002716212068 -0.003516732017 0.7967782617 0.1375871319
3826000000.0 0.125863567 0.1768751195 0.002190175699 -0.00369693758 0.002420825418 -0.003792687319 0.8025177121 0.08175443558
3827000000.0 0.1424956322 0.1713434679 0.001914516208 -0.003940169699 0.002149143489 -0.004023812246 0.8044676781 0.02470882514
3828000000.0 0.1585854143 0.1638866033 0.001692352584 -0.0041486267 0.001796627068 -0.004181217402 0.8020290732 -0.0329645873
3829000000.0 0.1739244014 0.154523333 0.001303708646 -0.004262124654 0.001450289623 -0.004307095427 0.7947138548 -0.09078525923
3830000000.0 0.1885263771 0.1434172834 0.0009905003244 -0.004398684483 0.001135613304 -0.004481317941 0.7825859785 -0.148837042
3831000000.0 0.2017579824 0.1306619221 0.0006703942199 -0.004581206013 0.0007475425373 -0.004701005761 0.7655847669 -0.2063395038
3832000000.0 0.2137365341 0.1162810355 0.0002765186073 -0.004731769208 0.0003832868242 -0.004766765982 0.7438305616 -0.2631633851
3833000000.0 0.2239228785 0.1009062438 -0.0001755472185 -0.004760048818 1.015864655e-05 -0.004781611264 0.7168358564 -0.3189079538
3834000000.0 0.2323731929 0.08472273727 -0.0004835086002 -0.004815733526 -0.0004263095907 -0.004893119913 0.6847593784 -0.3732289135
3835000000.0 0.2392992824 0.067489784 -0.0009396249661 -0.004815610126 -0.0008115773671 -0.00485213194 0.6473847628 -0.4255242035
3836000000.0 0.2444881052 0.04987306494 -0.001363867079 -0.004846968688 -0.00125595904 -0.00487144012 0.6047483683 -0.4749074542
3837000000.0 0.2478892505 0.03172547084 -0.001839344739 -0.004728040658 -0.001693496713 -0.00481530698 0.5571936369 -0.5214555541
3838000000.0 0.2494201958 0.01329368885 -0.002211817307 -0.004642448388 -0.002130251378 -0.004723924212 0.5048180819 -0.5633942814
3839000000.0 0.2490358204 -0.005037001073 -0.002736444352 -0.004471560009 -0.002568932949 -0.004484896082 0.4478239715 -0.6016103593
3840000000.0 0.2467769533 -0.02308623319 -0.003132969839 -0.004189265426 -0.003052234882 -0.004330248106 0.3864485025 -0.6343099319
3841000000.0 0.2428713143 -0.04082358737 -0.003594043199 -0.003976764157 -0.003450392745 -0.004184601363 0.3206966817 -0.6619633159
3842000000.0 0.2372093499 -0.05799823515 -0.004043361638 -0.0037013744 -0.003920389339 -0.003843469778 0.2518231869 -0.6832886686
3843000000.0 0.2298116982 -0.07436203301 -0.004348999821 -0.003315059468 -0.004199215677 -0.003477058373 0.1794140935 -0.6984875956
3844000000.0 0.2209091038 -0.08949482063 -0.004715854768 -0.003029678017 -0.004587490577 -0.003077392699 0.105078049 -0.705878821
3845000000.0 0.2106899321 -0.1035476393 -0.005092933308 -0.002458300209 -0.004895736929 -0.002698354656 0.02946436033 -0.7058080419
3846000000.0 0.1991770267 -0.1165296198 -0.005334557034 -0.002083548112 -0.005177036393 -0.00219763699 -0.04671117663 -0.6975922985
3847000000.0 0.1864537746 -0.1278690466 -0.005482306238 -0.001556438976 -0.005423051305 -0.001734600053 -0.1225531027 -0.6814282228
3848000000.0 0.1728079766 -0.1377846414 -0.005796758924 -0.001019732212 -0.005619986914 -0.001277810312 -0.1973543912 -0.6567896623
3849000000.0 0.1583672762 -0.1460817774 -0.005899207201 -0.0004601324035 -0.005733386148 -0.0007381524192 -0.269682616 -0.6242007821
3850000000.0 0.1432594359 -0.1525357827 -0.005994176958 8.427696594e-05 -0.005868260283 -0.0001877258619 -0.338337481 -0.5836688302
3851000000.0 0.1277181208 -0.1570935018 -0.005961453542 0.0007366556674 -0.005944080651 0.0003865679319 -0.4024916589 -0.5356686334
3852000000.0 0.1122312844 -0.1596503187 -0.005927588325 0.001359145506 -0.005940265954 0.0009988790844 -0.4613383412 -0.4806556688
3853000000.0 0.09686275572 -0.1605811977 -0.005795324221 0.00191417546 -0.00576599082 0.001552286092 -0.5137746334 -0.4196346762
3854000000.0 0.08174856007 -0.1596376676 -0.005555430427 0.002506421646 -0.005641532131 0.002114422387 -0.5590843558 -0.3533336999
3855000000.0 0.06722610444 -0.1567225934 -0.005245570559 0.003020768752 -0.00545961922 0.002710452303 -0.5969842672 -0.2823082512
3856000000.0 0.05348173901 -0.1522802507 -0.004977462348 0.003517764388 -0.005129948258 0.003236320335 -0.6266117692 -0.2083303208
3857000000.0 0.04081166536 -0.1461056582 -0.004581450485 0.004040075466 -0.004768630024 0.003709269222 -0.6480457783 -0.1318163644
3858000000.0 0.02942264266 -0.1383768882 -0.004192625172 0.004416837357 -0.004387843423 0.004127873573 -0.6609813571 -0.05394693195
3859000000.0 0.01964193955 -0.129556 -0.00363491918 0.004820561502 -0.004042230081 0.004527436569 -0.6655336022 0.02414783508
3860000000.0 0.0113667557 -0.1199043908 -0.003128311131 0.005137332249 -0.00351636298 0.004872435704 -0.6617693901 0.1016964093
3861000000.0 0.004726053216 -0.1094128675 -0.002667190041 0.005347163416 -0.003055456094 0.005172873382 -0.6498699784 0.1770258795
3862000000.0 -0.0001619738614 -0.09837646639 -0.002123455517 0.005565376952 -0.002506583231 0.005367483478 -0.630803287 0.2501443244
3863000000.0 -0.003226988018 -0.0869422025 -0.001544330386 0.005706575233 -0.001943294192 0.005611857865 -0.6049630046 0.3192074838
3864000000.0 -0.004473546054 -0.07558091535 -0.001038434217 0.005721949041 -0.001444155117 0.005686561111 -0.5722825527 0.3850527546
3865000000.0 -0.00385572901 -0.0642810404 -0.00047559425 0.005780181848 -0.0009474524995 0.005744320806 -0.5340911746 0.4462759189
3866000000.0 -0.001519569079 -0.05332982484 0.000135981667 0.005773846526 -0.0003905807389 0.005798672792 -0.4914934039 0.5020481007
3867000000.0 0.002656991128 -0.0430424159 0.0006194733432 0.005756623112 0.0001703320013 0.005821104627 -0.4434169233 0.5534367336
3868000000.0 0.008485739119 -0.03345244464 0.001032634755 0.005575393327 0.0006708651781 0.005755418446 -0.3924161792 0.5985930588
3869000000.0 0.01619796269 -0.02510158524 0.001502340543 0.00546121411 0.001145828632 0.005691606086 -0.3381502926 0.6384448705
3870000000.0 0.02534174547 -0.01827430804 0.001955076121 0.005218270235 0.001635324443 0.005494149402 -0.2819122374 0.6725311489
3871000000.0 0.03572799265 -0.01316625815 0.002379243961 0.004997340497 0.002104538959 0.005322359502 -0.2231948972 0.7010332164
3872000000.0 0.04714069515 -0.01015893279 0.002723958576 0.004861353897 0.00254187244 0.005120853428 -0.163589403 0.7239399426
3873000000.0 0.05883215368 -0.009080317578 0.003205089131 0.004511394538 0.002890784061 0.004812838044 -0.1032670215 0.7413033808
3874000000.0 0.07063777 -0.01014865267 0.003444791771 0.004254838452 0.003333976958 0.004576800857 -0.04227054864 0.7533545136
3875000000.0 0.08250710368 -0.01314145931 0.003749561962 0.003941921052 0.003646282479 0.004265196621 0.018472597 0.7601044016
3876000000.0 0.09402900189 -0.01795577362 0.004043727182 0.003595222486 0.003988890443 0.003922641277 0.07816746831 0.7617501722
3877000000.0 0.104998298 -0.02473417966 0.004355392884 0.003254501382 0.004273531027 0.003569853259 0.1375462562 0.7587150994
3878000000.0 0.1150874421 -0.03334825931 0.004604215268 0.002886045026 0.004604047164 0.003200624138 0.1957653612 0.7510781678
3879000000.0 0.1241051704 -0.04357327171 0.004784511402 0.002529263962 0.004780960735 0.002788943471 0.2529148757 0.7386128635
3880000000.0 0.1318919361 -0.05520461527 0.004981341306 0.002111350419 0.00507191103 0.002353444695 0.3078756928 0.7222778307
3881000000.0 0.138319999 -0.06835734269 0.005112796556 0.001712535508 0.005258981138 0.001944317948 0.3608688414 0.7016698073
3882000000.0 0.142983079 -0.0824794011 0.005285874009 0.001301578246 0.005357746966 0.001538313576 0.4120302796 0.6774579363
3883000000.0 0.1460161507 -0.09747670623 0.005331089254 0.0008056492661 0.005449045915 0.001027871156 0.4606077075 0.6493994253
3884000000.0 0.1470947713 -0.1132220293 0.005348220933 0.0004735556431 0.005526301451 0.0006238201167 0.5060884953 0.6182741385
3885000000.0 0.1463321596 -0.1294103403 0.005420979112 8.887079275e-06 0.005599445198 0.0002081634739 0.5496816039 0.5836190916
3886000000.0 0.1437109262 -0.1457582887 0.005433491897 -0.0004484712845 0.005538522732 -0.0002686223015 0.5898612738 0.5462638141
3887000000.0 0.1392706931 -0.1619453756 0.005353162996 -0.0009175839368 0.005542667117 -0.0006793487701 0.6275557876 0.505933888
3888000000.0 0.1328715235 -0.1781506808 0.005339570809 -0.001298809191 0.005496754311 -0.001155885402 0.6615385413 0.4632527691
3889000000.0 0.1244623438 -0.1941086163 0.005199516192 -0.001756115351 0.005435246974 -0.001524235122 0.6929191351 0.4169863461
3890000000.0 0.1142444909 -0.2091826133 0.005016797222 -0.00216104649 0.005231691524 -0.002052258933 0.7207999229 0.3691881816
3891000000.0 0.1020599082 -0.2236685575 0.004781227093 -0.002626061672 0.005126996431 -0.002456460847 0.7443972826 0.3195673268
3892000000.0 0.08803271502 -0.2368465959 0.004686451983 -0.002999112708 0.00494550867 -0.002819454297 0.7644526958 0.2682793882
3893000000.0 0.07252931595 -0.2487027757 0.004416214768 -0.00335791707 0.004664085805 -0.003313707188 0.7811096311 0.214129695
3894000000.0 0.05532831699 -0.2591658997 0.004154577851 -0.003696730128 0.004489932209 -0.003672960447 0.7932881713 0.1598498452
3895000000.0 0.03720642254 -0.2679065797 0.003908823244 -0.004107502289 0.004146977793 -0.004102663603 0.8015711308 0.103743864
3896000000.0 0.0178727489 -0.2747162147 0.003589710454 -0.004345108755 0.003774922807 -0.004423631821 0.8054198027 0.04665016489
3897000000.0 -0.002268362558 -0.2797969384 0.003352282569 -0.004736123607 0.003509027185 -0.004717347678 0.8048315644 -0.01081009515
3898000000.0 -0.02326055802 -0.2828976037 0.002880327404 -0.005048406776 0.003074279288 -0.005049911793 0.7997098565 -0.06880118037
3899000000.0 -0.04477924481 -0.2836982237 0.002543014707 -0.005294967443 0.002714144066 -0.005254104733 0.7898488045 -0.1275503954
3900000000.0 -0.06642954051 -0.2822382076 0.002158278367 -0.005564022344 0.002330600051 -0.00557605736 0.7750655413 -0.1850476138
3901000000.0 -0.08814073354 -0.2786456132 0.001627704012 -0.005785791669 0.001822135528 -0.005794614553 0.7554629445 -0.2419889934
3902000000.0 -0.1094722524 -0.2726655832 0.001197777339 -0.005916301161 0.001388669712 -0.005968961865 0.7308642864 -0.2980170966
3903000000.0 -0.1301460117 -0.2643855097 0.0007078506751 -0.00602806313 0.0008581326692 -0.006119090132 0.7009328604 -0.3526650588
3904000000.0 -0.1498786807 -0.2540552116 0.0001258095872 -0.006122502498 0.0003424491151 -0.006314286962 0.6662541032 -0.4065011915
3905000000.0 -0.1685659736 -0.2417679222 -0.0003860678116 -0.006300924812 -0.0001739257568 -0.006353633478 0.6262753606 -0.4567043737
3906000000.0 -0.1860382408 -0.2275608889 -0.0008080711123 -0.006321113557 -0.0007468080148 -0.006366507616 0.5813430548 -0.5044815323
3907000000.0 -0.201798588 -0.2116352643 -0.001528864843 -0.006258584559 -0.001278602402 -0.006354578305 0.5320444107 -0.5478592205
3908000000.0 -0.2157756388 -0.1942640511 -0.002052660566 -0.006151293404 -0.001913172193 -0.006287416909 0.4773005843 -0.5880615161
3909000000.0 -0.2281024456 -0.1752656762 -0.002595341532 -0.006084670313 -0.002391960938 -0.006187177263 0.4184363186 -0.623318216
3910000000.0 -0.2382018566 -0.1552109535 -0.003168842057 -0.005954836961 -0.003000588156 -0.006048072129 0.3554095626 -0.6536130209
3911000000.0 -0.2459381819 -0.1345249111 -0.00377293909 -0.005700758193 -0.003620542819 -0.005876802839 0.288787514 -0.6778317322
3912000000.0 -0.2514669001 -0.113250122 -0.004308756441 -0.005392714404 -0.004127250984 -0.00552722998 0.2187071294 -0.6960371013
3913000000.0 -0.2546707392 -0.09153021786 -0.0049248836 -0.004992060829 -0.004711597227 -0.00515796477 0.1466323286 -0.7072222135
3914000000.0 -0.2554879487 -0.06985895337 -0.005413395353 -0.004582745954 -0.005216374528 -0.004854456056 0.07228149474 -0.7113363289
3915000000.0 -0.2539629638 -0.04859692476 -0.005918781273 -0.004067703616 -0.005687621422 -0.004290004261 -0.003018933116 -0.7078475259
3916000000.0 -0.2501859069 -0.02783087322 -0.006260910537 -0.003676201217 -0.006145089865 -0.00378820044 -0.07875079662 -0.6965651825
3917000000.0 -0.2441907227 -0.007827101508 -0.006672601681 -0.002969947876 -0.006539620925 -0.003245812841 -0.1534541845 -0.6769689221
3918000000.0 -0.2360616773 0.0108883432 -0.007011429872 -0.002329938579 -0.006919756066 -0.002610434545 -0.22659944 -0.6495384366
3919000000.0 -0.2260222584 0.02827721544 -0.00727051124 -0.001710790093 -0.007178617641 -0.001919144182 -0.2972234488 -0.6139481746
3920000000.0 -0.2143069804 0.0440629197 -0.007469755597 -0.0009281762759 -0.007416897919 -0.001198113663 -0.3639041483 -0.5708416655
3921000000.0 -0.2012782991 0.05822021693 -0.007591369562 -0.0002729873522 -0.007512091659 -0.000503352785 -0.4259889722 -0.5202778877
3922000000.0 -0.1871150285 0.07028318311 -0.007641329896 0.000529742043 -0.007585722953 0.0002072645584 -0.4821414351 -0.4637226097
3923000000.0 -0.1719247401 0.0803928869 -0.007433709688 0.001388169476 -0.007552694995 0.0008794704336 -0.5322901607 -0.4004864739
3924000000.0 -0.1559115797 0.08853616308 -0.007378345821 0.001971457154 -0.007562824525 0.001649574609 -0.5751826763 -0.3329188866
3925000000.0 -0.1395578682 0.09478294509 -0.00726926839 0.002757661277 -0.007359199226 0.002396456897 -0.6106512547 -0.2605183125
3926000000.0 -0.1227997839 0.09883165709 -0.006958577782 0.003418244887 -0.007139645983 0.00303300051 -0.6378109455 -0.1848606776
3927000000.0 -0.1059427187 0.1006093408 -0.006576031446 0.004098748323 -0.006795873865 0.003707558615 -0.6564515829 -0.1072781375
3928000000.0 -0.08932249993 0.1001936427 -0.006117864978 0.004716688301 -0.006395822857 0.004410242662 -0.6668029428 -0.02846827894
3929000000.0 -0.07328233123 0.09753295217 -0.005655407906 0.005278965924 -0.006048417185 0.004975955933 -0.6682498455 0.05036079211
3930000000.0 -0.05805407465 0.09271868082 -0.005104272626 0.005809833296 -0.005447465926 0.005578075536 -0.6615412831 0.1279669374
3931000000.0 -0.04399210215 0.0859634665 -0.004447508138 0.006310522556 -0.004891604651 0.006065780763 -0.6468977928 0.2039693104
3932000000.0 -0.03158291429 0.0772646198 -0.003794357646 0.006651303265 -0.00424669683 0.00653142808 -0.6246954203 0.2772368094
3933000000.0 -0.02073006146 0.06720890256 -0.003125610063 0.006974446122 -0.003633962013 0.006837338675 -0.5956214666 0.3462941121
3934000000.0 -0.01178015862 0.05576862316 -0.002540600253 0.007238660939 -0.00295301713 0.007159377448 -0.5600722432 0.4116526333
3935000000.0 -0.004660095088 0.04347565842 -0.001827460015 0.007358233444 -0.002234672429 0.007408328354 -0.5188256502 0.4720794958
3936000000.0 0.0003637252667 0.03036993881 -0.001128139091 0.007485402748 -0.001529802335 0.007498732768 -0.4720704556 0.527602546
3937000000.0 0.003326749429 0.01674194668 -0.0003927666112 0.007569884416 -0.0008932621568 0.007575604599 -0.4215252101 0.5771811904
3938000000.0 0.004136018455 0.002844486086 0.000233355051 0.007408731151 -0.0001406098891 0.007576216944 -0.3672188222 0.6211544757
3939000000.0 0.002603127155 -0.01099736373 0.000940190861 0.007318703458 0.0005519278347 0.007552569732 -0.3099097013 0.6593199841
3940000000.0 -0.001138919848 -0.0245775998 0.001640597824 0.007174191531 0.001264226972 0.007367788348 -0.2500079572 0.6914611547
3941000000.0 -0.006985590793 -0.03737342611 0.002192282118 0.007026678417 0.001936595188 0.007178387605 -0.1887037456 0.7178257685
3942000000.0 -0.01480559912 -0.04932260533 0.00265848753 0.006690074224 0.002458708826 0.007027272601 -0.1263217032 0.7379859217
3943000000.0 -0.02480806224 -0.05987111926 0.003336633556 0.00640128646 0.003079435788 0.006734931841 -0.0633174479 0.7522998467
3944000000.0 -0.03639024496 -0.06900385526 0.003820137586 0.006150034256 0.003687921213 0.00642855186 -0.0006882790476 0.7611127491
3945000000.0 -0.04939421639 -0.07619507243 0.004366517998 0.005715725943 0.004217937123 0.006028867792 0.06149975955 0.7642509167
3946000000.0 -0.0635830909 -0.0816981029 0.004816270433 0.005347983912 0.004653444979 0.005594295915 0.1233757809 0.7623148083
3947000000.0 -0.07869712263 -0.0849119329 0.005206588656 0.004870899487 0.005032708403 0.005203465465 0.1839714795 0.7552685491
3948000000.0 -0.09436507523 -0.08617955774 0.005487748422 0.00435511535 0.005440946203 0.00462430995 0.2426098436 0.7435565738
3949000000.0 -0.1104683578 -0.08543774501 0.005889735185 0.003854367184 0.005831930321 0.004135477357 0.3003123701 0.7270579736
3950000000.0 -0.1268319786 -0.0825083306 0.006171194836 0.00332835759 0.006115917582 0.003656118177 0.3552929163 0.7064567398
3951000000.0 -0.1433428675 -0.07742044187 0.006331005599 0.00281190942 0.006378982216 0.003143627895 0.4074465632 0.6818348793
3952000000.0 -0.1593110412 -0.06979709473 0.006539487746 0.002358526923 0.006594628096 0.002569175558 0.4577558935 0.6529561993
