!Created with skrf (http://scikit-rf.org).
# Hz S RI R 50.0 
!freq ReS11 ImS11 ReS21 ImS21 ReS12 ImS12 ReS22 ImS22
3800000000.0 0.01361403894 0.04712776563 0.0008584655588 0.004047432914 0.0005590569344 0.004162475001 -0.2910156846 0.6770269825
3801000000.0 0.008676090278 0.04706971778 0.001107570482 0.003861926962 0.0008746943204 0.003992441576 -0.2323030531 0.706331149
3802000000.0 0.003702190006 0.04801756029 0.001337725203 0.003676054766 0.001157574123 0.00384953199 -0.1724444032 0.7300241138
3803000000.0 -0.001113138394 0.05014025494 0.00170507899 0.003554815194 0.001428485266 0.003583810758 -0.1124758422 0.7478192455
3804000000.0 -0.005629034247 0.05344083383 0.001833061688 0.003232220653 0.001764548244 0.003434280399 -0.05259117484 0.7601794683
3805000000.0 -0.00991811417 0.0579403773 0.002043161076 0.003032661974 0.00187904574 0.00324704079 0.007201831788 0.7675879642
3806000000.0 -0.01334211975 0.06351451904 0.002251162427 0.00276787742 0.002140102908 0.003031666158 0.06660393625 0.769948321
3807000000.0 -0.01568571478 0.07014705166 0.002455359325 0.002623063745 0.002306571463 0.00278254319 0.1257360876 0.7674978562
3808000000.0 -0.01692767814 0.0774585654 0.002538258675 0.002340187086 0.002525365679 0.002551843412 0.1831527203 0.7605576323
3809000000.0 -0.01674281992 0.0853947597 0.002659767168 0.00209557428 0.002608043607 0.002364797983 0.2389429063 0.7491846201
3810000000.0 -0.01523335092 0.09369038062 0.002783463337 0.001893264591 0.002737974981 0.002111073351 0.293772608 0.7335580793
3811000000.0 -0.01236348227 0.1020893368 0.002800477203 0.001649255399 0.002795750974 0.001855275012 0.3456657231 0.7146684191
3812000000.0 -0.008133400232 0.1101979501 0.002848373959 0.00142057566 0.002954571508 0.001653406885 0.3957824111 0.6919632399
3813000000.0 -0.002817791188 0.1179491241 0.002894373611 0.001216026139 0.002976902295 0.001391687081 0.4439909756 0.6658384997
3814000000.0 0.003881490557 0.125299405 0.002981351689 0.0009339623502 0.003051081439 0.001150018186 0.4902833104 0.6360403302
3815000000.0 0.01150705665 0.1319245118 0.002953701653 0.000841847097 0.002982283477 0.0009690719889 0.5334495306 0.6032990239
3816000000.0 0.02012720518 0.1378212347 0.002970407717 0.0006242547533 0.00307017169 0.0007561863749 0.5741975904 0.567339518
3817000000.0 0.02965966985 0.1430200977 0.003004384926 0.000411391462 0.003123486415 0.0005396035849 0.6120973229 0.5289803676
3818000000.0 0.03978136554 0.1471924379 0.003006567946 0.0001828607637 0.003069695085 0.0003449130163 0.6467856765 0.4876720946
3819000000.0 0.05087403208 0.1505946894 0.002989773406 -4.719960998e-05 0.003119341331 0.0001222239371 0.6785141826 0.4439095143
3820000000.0 0.06258009374 0.1529085386 0.002913597273 -0.0001569922897 0.003014918184 -8.074653306e-05 0.7071703672 0.397672141
3821000000.0 0.07497046143 0.1540153786 0.002995175775 -0.0003915129346 0.003091876395 -0.0002654225391 0.7323251367 0.3492516318
3822000000.0 0.087714836 0.1538163148 0.00292512821 -0.0006108922535 0.002981186612 -0.0004836401786 0.75390172 0.2992482288
3823000000.0 0.1007596478 0.1521121755 0.002838884247 -0.0007024926017 0.002932916628 -0.0007175965584 0.7717510462 0.2472558665
3824000000.0 0.1140300408 0.1491118435 0.002758353483 -0.001014498295 0.002909411443 -0.0008864845731 0.7859396935 0.1937692284
3825000000.0 0.1272178888 0.1446481972 0.002731987741 -0.001212001313 0.002882709261 -0.001065785415 0.795961082 0.1389156602
3826000000.0 0.1400147378 0.1388147731 0.002684042789 -0.001369123464 0.002760804258 -0.001344957156 0.8020185828 0.08279748461
3827000000.0 0.1522587836 0.131777253 0.002574108308 -0.001534183975 0.002663439373 -0.001549272216 0.8038873076 0.02598529906
3828000000.0 0.1640519202 0.1232704176 0.002438414609 -0.001779568382 0.002549309982 -0.001690787612 0.80141294 -0.03189003385
3829000000.0 0.175174877 0.113650421 0.002259706147 -0.001890561311 0.002442010911 -0.001952232327 0.7941921949 -0.08945942467
3830000000.0 0.1854267865 0.1025583523 0.002238481771 -0.002080756705 0.002310348209 -0.002131566172 0.7824582458 -0.1477956871
3831000000.0 0.1946965605 0.09037225974 0.002019597217 -0.00223298464 0.002210019622 -0.002263054485 0.7655764222 -0.2053574403
3832000000.0 0.2026644498 0.07718678147 0.001884882106 -0.002419562312 0.002036698861 -0.00243828143 0.7438290715 -0.2620020273
3833000000.0 0.2089694291 0.06332817008 0.001744954847 -0.002563985297 0.001818375196 -0.00256384071 0.7169967294 -0.3176898398
3834000000.0 0.2138884813 0.04901873495 0.001459936961 -0.002731131157 0.001640454866 -0.002785023535 0.6847506166 -0.3724917236
3835000000.0 0.2175155729 0.03431744522 0.00131087401 -0.002824650612 0.001457300736 -0.002892910037 0.6475975513 -0.4240550675
3836000000.0 0.2197886854 0.01912821106 0.001091187587 -0.003008164465 0.001148250187 -0.002958490746 0.6053653359 -0.4734605618
3837000000.0 0.2205860466 0.003949634129 0.0008330349228 -0.003095213789 0.000966616557 -0.003029175801 0.5576295257 -0.5199949958
3838000000.0 0.2198483497 -0.01111509015 0.0005911867484 -0.003170604585 0.0006922621396 -0.00315142516 0.5053918958 -0.5621924146
3839000000.0 0.2178260684 -0.02633135836 0.0003128440585 -0.00318907667 0.0004049412091 -0.003249086672 0.4482737482 -0.600493996
3840000000.0 0.2142194808 -0.04083961237 7.932796143e-05 -0.003279875498 0.0002241823095 -0.003337357193 0.386742264 -0.6337045877
3841000000.0 0.209296748 -0.05492847967 -0.0001659775589 -0.003386285389 -2.671634684e-05 -0.003339073854 0.3211336732 -0.6613332077
3842000000.0 0.2030659616 -0.06841339266 -0.0004430931876 -0.003349527018 -0.0002976215619 -0.003351085121 0.2522134781 -0.6826600267
3843000000.0 0.1956988275 -0.08103691739 -0.0007294532261 -0.003306123894 -0.000616605219 -0.003330453299 0.1803895235 -0.6975582318
3844000000.0 0.1871701926 -0.09284777594 -0.00104325416 -0.003191343276 -0.0008785333484 -0.003284950275 0.1060222387 -0.7052567226
3845000000.0 0.177486062 -0.1035017071 -0.001333901775 -0.003175059333 -0.00115339458 -0.00319058774 0.02998504601 -0.7052197115
3846000000.0 0.1669053733 -0.1131146588 -0.001672402723 -0.003083523596 -0.001471934142 -0.003135030158 -0.04642771557 -0.6972942791
3847000000.0 0.1555646807 -0.1214980083 -0.001908491016 -0.003025635378 -0.001743471366 -0.003018861869 -0.1225309893 -0.6810170108
3848000000.0 0.1435772777 -0.1284308514 -0.002126609674 -0.00275890762 -0.002038276521 -0.002833259758 -0.1967337281 -0.6565952033
3849000000.0 0.1311926395 -0.1337390356 -0.002469288185 -0.002582757501 -0.00229502446 -0.002699197736 -0.268846035 -0.6241160895
3850000000.0 0.1186089963 -0.1376028331 -0.002684096806 -0.00236444897 -0.002536052372 -0.002456379822 -0.337305218 -0.5837436548
3851000000.0 0.105882667 -0.1398750603 -0.00289277616 -0.002112245886 -0.002734323964 -0.002293942962 -0.4018267393 -0.5358244706
3852000000.0 0.09341958165 -0.1408014035 -0.00302740559 -0.001841894933 -0.002844416071 -0.001990525518 -0.4608272612 -0.4809716998
3853000000.0 0.08140044659 -0.1403604399 -0.003169690026 -0.001597613445 -0.003066762583 -0.001784951775 -0.5133336186 -0.4194821907
3854000000.0 0.06975340098 -0.138532742 -0.003313183784 -0.001275894814 -0.003177420702 -0.001424144139 -0.558419168 -0.3534348974
3855000000.0 0.05886162072 -0.135511695 -0.003412693506 -0.0009379219846 -0.003273721552 -0.001219900674 -0.5962548852 -0.2826691095
3856000000.0 0.04876255989 -0.1313050167 -0.003464983543 -0.0007015293231 -0.00340693933 -0.0008920082473 -0.6262484789 -0.2084161132
3857000000.0 0.03949372843 -0.1261840594 -0.00345778605 -0.000371159229 -0.003468579147 -0.0005815569311 -0.6475477219 -0.13244407
3858000000.0 0.03115068004 -0.1202365596 -0.00354151777 -9.15624114e-05 -0.003513024654 -0.0002759899071 -0.6607011557 -0.05439638744
3859000000.0 0.02387502603 -0.1133305745 -0.00342951389 0.0002252521372 -0.003409730969 -1.766563582e-05 -0.6652181149 0.02346437221
3860000000.0 0.01782341301 -0.1058120311 -0.003370582359 0.000542263384 -0.00335355592 0.0003117542656 -0.66150105 0.1008959971
3861000000.0 0.0131380558 -0.097762452 -0.003232291434 0.0008309317054 -0.003309232416 0.0005796764744 -0.6497877836 0.1763475084
3862000000.0 0.009670502506 -0.08936522223 -0.003189043375 0.001093272469 -0.003262187587 0.0008320732159 -0.6309397221 0.2489999655
3863000000.0 0.007737992797 -0.0808685311 -0.003122241469 0.00130155182 -0.003208101261 0.001142115681 -0.6049936414 0.3186476164
3864000000.0 0.007112374995 -0.07243996665 -0.002928569913 0.001574051916 -0.003091234714 0.001368321013 -0.572376132 0.3842144996
3865000000.0 0.007765344344 -0.06434889399 -0.002705791965 0.001768416609 -0.002907761373 0.00154859724 -0.5343620181 0.4454179381
3866000000.0 0.009641546756 -0.05647031508 -0.002579077845 0.001926511992 -0.00279471837 0.001815473428 -0.4916022718 0.5013165104
3867000000.0 0.01278812159 -0.0491505869 -0.002448335756 0.002085662913 -0.002624555724 0.002053382341 -0.443849206 0.5526301063
3868000000.0 0.01699597761 -0.04246643775 -0.002276015934 0.002266470343 -0.002418691292 0.00224796473 -0.3925748169 0.5981195629
3869000000.0 0.0223658774 -0.03644802511 -0.002091726288 0.002478190465 -0.002311465563 0.002396433614 -0.3381984234 0.6379468412
3870000000.0 0.02895292267 -0.03140896561 -0.001860261546 0.002566528041 -0.002068067668 0.002577436389 -0.2816129923 0.6721401436
3871000000.0 0.03642419353 -0.02753449301 -0.0016920903 0.002775549889 -0.00178786437 0.002731969813 -0.2232179195 0.7006380634
3872000000.0 0.04470458254 -0.02505413022 -0.001417831401 0.0028198855 -0.001638222253 0.002785633784 -0.1639607847 0.7232586273
3873000000.0 0.05358224735 -0.0239548329 -0.00112574175 0.002927164547 -0.001423512935 0.002987466985 -0.1037543118 0.7406655572
3874000000.0 0.06289044768 -0.02436137617 -0.0009281127132 0.003023353871 -0.001152822515 0.003044869751 -0.0429152362 0.7529103545
3875000000.0 0.07246463001 -0.02641265787 -0.0006777147646 0.003165549831 -0.0008922202396 0.003128721612 0.01813592575 0.7596569185
3876000000.0 0.08195348829 -0.03023292292 -0.0004827684606 0.003095762338 -0.000583797053 0.003163394518 0.0782584846 0.7612824343
3877000000.0 0.09114547819 -0.03570724725 -0.0002641031751 0.003119496396 -0.0003948605445 0.003204821609 0.1372482926 0.7582839362
3878000000.0 0.09976798296 -0.04284820456 2.724446131e-05 0.003152561374 -0.0001664028241 0.003252918366 0.1955836117 0.7505556682
3879000000.0 0.1074733287 -0.05151600188 0.0002479039831 0.003053996246 6.320618559e-05 0.003266206477 0.2524230778 0.7382881513
3880000000.0 0.1140668914 -0.06162578972 0.0004672338546 0.003079864895 0.0003108860692 0.003168879775 0.3066636324 0.7220803206
3881000000.0 0.1195451766 -0.07288111597 0.0006209578714 0.00300477026 0.0005667059449 0.003095073625 0.3602560461 0.7014425408
3882000000.0 0.1236937717 -0.08532713149 0.0009405735764 0.003012770554 0.000744358229 0.00310497894 0.4107574821 0.6769320045
3883000000.0 0.1262665987 -0.0985867658 0.00113437674 0.002852108562 0.00104037486 0.002971347189 0.4596329927 0.6491535639
3884000000.0 0.1271579564 -0.1126242563 0.001340385643 0.002781285206 0.001237532124 0.002956897719 0.5053876638 0.6182853072
3885000000.0 0.1263202876 -0.1270819947 0.001533012139 0.002642686246 0.001392588718 0.002824332099 0.5487789512 0.5834989457
3886000000.0 0.1238711849 -0.1418383436 0.001718396554 0.002576518105 0.001636094996 0.002742780373 0.5892433524 0.5460890738
3887000000.0 0.1194383875 -0.1566744955 0.001843476435 0.002391123911 0.0018632625 0.002638327423 0.6267223358 0.5056600528
3888000000.0 0.1131207049 -0.1713981153 0.002053908305 0.002351122675 0.002032351913 0.002478883136 0.661233902 0.4625358686
3889000000.0 0.1049920022 -0.1857549023 0.002188012004 0.002166823018 0.002212202176 0.002366332104 0.6923293471 0.4169223773
3890000000.0 0.09503431618 -0.1994542086 0.002403960796 0.001976506319 0.002387402812 0.002195225796 0.7199877501 0.3691994584
3891000000.0 0.08314115554 -0.2123346333 0.002517994493 0.001907110913 0.002544121118 0.002028754679 0.7437180281 0.3195079585
3892000000.0 0.06959448755 -0.223911487 0.00270246109 0.001703983173 0.002676142612 0.001941890107 0.7640604377 0.2676019593
3893000000.0 0.05456902087 -0.23415778 0.002832015511 0.00151660468 0.002835161518 0.001658670837 0.7802917957 0.2144427042
3894000000.0 0.03844256699 -0.2426801835 0.002969731344 0.001345116296 0.002987974091 0.00146885158 0.7928617597 0.1594650723
3895000000.0 0.02157802507 -0.2495970993 0.003102199407 0.001093624276 0.003154097125 0.001311883447 0.8007656336 0.1037425212
3896000000.0 0.003612754168 -0.2550235083 0.003220107872 0.0009919424774 0.003225096501 0.001076098066 0.804690659 0.04679521
3897000000.0 -0.01480281632 -0.2585193522 0.003323135432 0.0007140423986 0.003387846751 0.0008522350108 0.8041316271 -0.0105475121
3898000000.0 -0.03387070447 -0.2603412468 0.00338027603 0.0004583292175 0.003410410136 0.0006250864244 0.7989225984 -0.06894179223
3899000000.0 -0.05316118151 -0.2602044997 0.003526018467 0.0002258154709 0.003585089231 0.0002941864659 0.7890937924 -0.1265963834
3900000000.0 -0.07258487493 -0.2580787357 0.003588516265 -4.575039202e-05 0.003686211305 3.65162814e-05 0.7743325233 -0.1845147682
3901000000.0 -0.09183185548 -0.2542151945 0.003593779868 -0.0003279134398 0.003717007115 -0.0002920297266 0.7545548677 -0.2419567208
3902000000.0 -0.1107227728 -0.2483341867 0.003647026606 -0.0007476428873 0.003726030001 -0.0005507511669 0.7300123572 -0.2978260219
3903000000.0 -0.1291290969 -0.2405990506 0.003639944363 -0.000976971467 0.00369581813 -0.0009391629137 0.7003110051 -0.3526185356
3904000000.0 -0.1469250023 -0.2310770273 0.00362909981 -0.001287888736 0.003642319469 -0.001210719231 0.6656792164 -0.405359807
3905000000.0 -0.1637255549 -0.2197588408 0.003534354968 -0.00163940643 0.003607844934 -0.001550427871 0.6257815361 -0.4558302633
3906000000.0 -0.1794578582 -0.2066958981 0.003403784009 -0.001901877462 0.00345886522 -0.001914537046 0.5809524059 -0.5031295542
3907000000.0 -0.1937434077 -0.19204167 0.003280796809 -0.002282834845 0.003403331619 -0.00212346972 0.5312666893 -0.5472052972
3908000000.0 -0.2064712495 -0.1758792396 0.003095718799 -0.002543661976 0.003235157346 -0.00246266881 0.4769492745 -0.5871359353
3909000000.0 -0.2176207751 -0.1585299438 0.002922757529 -0.002816032618 0.003067913232 -0.002776983427 0.4181164503 -0.6222783822
3910000000.0 -0.2266553193 -0.1403275076 0.002691329224 -0.003161316505 0.00281433505 -0.003076778026 0.3552895784 -0.6525434862
3911000000.0 -0.2339344919 -0.1211887272 0.002449640306 -0.003390793456 0.002667588182 -0.003338139737 0.2884694934 -0.6769691114
3912000000.0 -0.2391509116 -0.1014986366 0.002183548175 -0.003639310831 0.002365396824 -0.003658120753 0.218886286 -0.6950176142
3913000000.0 -0.2422737181 -0.08157756578 0.001895528636 -0.003965434153 0.002037554514 -0.003863872495 0.1467315555 -0.7063196822
3914000000.0 -0.2433007658 -0.06152685923 0.001546786283 -0.004102353938 0.001754845143 -0.004068767652 0.07262261212 -0.7103260161
3915000000.0 -0.2421803176 -0.04170166622 0.001196511439 -0.00429798523 0.001376073109 -0.004290595651 -0.002418539254 -0.7070285908
3916000000.0 -0.2390345037 -0.02221761334 0.0008278536843 -0.004451713059 0.001053923042 -0.004416154698 -0.0781949237 -0.695519993
3917000000.0 -0.2339864224 -0.003321971951 0.0003147705575 -0.004570235033 0.0005840362865 -0.004535657354 -0.153259322 -0.6760593326
3918000000.0 -0.2268477231 0.01464882281 -2.992745976e-05 -0.004589857534 0.0002056872036 -0.004575620405 -0.225986138 -0.6489377652
3919000000.0 -0.2178015113 0.03170653702 -0.0005446234718 -0.004570110701 -0.0002652646217 -0.004614307079 -0.2962308526 -0.6135629713
3920000000.0 -0.2072176486 0.04722989356 -0.0008768559783 -0.004681744613 -0.0006930119125 -0.004642160144 -0.3629279137 -0.5706340095
3921000000.0 -0.1949950606 0.06127905527 -0.001340415096 -0.004561243579 -0.001160874148 -0.004570400342 -0.424898237 -0.5202372966
3922000000.0 -0.1813524216 0.07370034095 -0.001794688869 -0.004488711711 -0.00153530098 -0.004531707615 -0.4813774228 -0.4634743239
3923000000.0 -0.1668503135 0.08410857102 -0.002249506302 -0.004229424987 -0.001951961895 -0.004391354509 -0.5313538313 -0.4004726866
3924000000.0 -0.1515439302 0.09270731002 -0.002640565392 -0.004116176162 -0.002418350894 -0.004226576537 -0.5744641423 -0.3324222882
3925000000.0 -0.1354293972 0.09931895602 -0.002976881573 -0.00383792934 -0.002777200425 -0.004010803998 -0.6097273827 -0.2604659414
3926000000.0 -0.1189234555 0.1038754457 -0.003345325589 -0.003605843289 -0.003249035915 -0.003772409167 -0.6370076537 -0.1848826674
3927000000.0 -0.102105163 0.106497422 -0.003664584365 -0.003264368977 -0.003621601965 -0.003383536125 -0.6557886004 -0.1077333437
3928000000.0 -0.08544301987 0.106733088 -0.003996142186 -0.002902544104 -0.003952254541 -0.003089643782 -0.6659026146 -0.02913856867
3929000000.0 -0.06879577041 0.1048694893 -0.004364267923 -0.002470768522 -0.004101513419 -0.002691222588 -0.6676257253 0.04977531827
3930000000.0 -0.05300088599 0.1006499277 -0.004577818792 -0.002061714651 -0.004434118979 -0.002298347186 -0.6608211398 0.1277980465
3931000000.0 -0.03820419684 0.09423311499 -0.004710186739 -0.001586904749 -0.004625985865 -0.001845424878 -0.6466338634 0.2032049112
3932000000.0 -0.02460771427 0.0858070025 -0.004741187207 -0.001200076076 -0.004714924376 -0.001459078281 -0.6245172024 0.2759810289
3933000000.0 -0.01277289446 0.07561322421 -0.00486026099 -0.0006417775876 -0.004805604927 -0.001025719568 -0.5954002142 0.345467345
3934000000.0 -0.002575236838 0.06387161022 -0.004851978738 -0.0002887497831 -0.004883117508 -0.0006350651383 -0.5598966479 0.4108031219
3935000000.0 0.005211099051 0.0509249936 -0.004852450453 0.0001358043519 -0.004917807877 -0.0001556539937 -0.5184608698 0.4714241021
3936000000.0 0.01092227083 0.03719192669 -0.004801454954 0.0006005834439 -0.004899049643 0.0003243870451 -0.4716031253 0.5269208076
3937000000.0 0.01449917722 0.02288094652 -0.004729020875 0.0009766689036 -0.004823295865 0.0007154169143 -0.4212426543 0.5765071934
3938000000.0 0.01569901593 0.008156056018 -0.004590377212 0.001349836704 -0.004666946363 0.001150915516 -0.3673534393 0.6204247093
3939000000.0 0.01454352494 -0.006385732736 -0.004542632028 0.001732746605 -0.004641171079 0.001484572655 -0.3097754717 0.6585059739
3940000000.0 0.01122427359 -0.02063891424 -0.004318517633 0.002072436968 -0.004550809506 0.001848454005 -0.2500031888 0.6908089838
3941000000.0 0.005728807766 -0.03436348624 -0.004100906663 0.002369543305 -0.004329333082 0.002256325446 -0.1890365332 0.716840582
3942000000.0 -0.001965951873 -0.04728967683 -0.003984264098 0.002789207501 -0.004162804224 0.002618030878 -0.1270162463 0.7370531364
3943000000.0 -0.0118120946 -0.05900428968 -0.003708569333 0.003047072096 -0.003909314983 0.002948697656 -0.06417031586 0.7516224119
3944000000.0 -0.02361244708 -0.0692587382 -0.003438770305 0.003338838695 -0.003685428062 0.003290449968 -0.001648120815 0.7603135135
3945000000.0 -0.03715291619 -0.07769065667 -0.003198168473 0.003634107066 -0.003382611321 0.003643734613 0.06123312935 0.7637904854
3946000000.0 -0.05216079578 -0.08393487266 -0.002827293472 0.003877637209 -0.003033134388 0.003851205809 0.1232364997 0.7616427925
3947000000.0 -0.0681155622 -0.08795686997 -0.002517870627 0.004186056089 -0.002687512897 0.004154329654 0.1836509705 0.7547695659
3948000000.0 -0.08472747356 -0.08955785326 -0.002136758063 0.004326769151 -0.002387046115 0.00437887013 0.242658481 0.7429575891
3949000000.0 -0.101732038 -0.08899167265 -0.001752146636 0.004530167207 -0.001950385398 0.004516542889 0.2998148799 0.726848322
3950000000.0 -0.1188149378 -0.08600628346 -0.001331150299 0.004675092641 -0.001546400366 0.004672914278 0.3547849059 0.7059820356
3951000000.0 -0.1359237731 -0.08071312725 -0.001037321636 0.004728155676 -0.00118613313 0.004750213586 0.4073041975 0.6812356074
3952000000.0 -0.1524998993 -0.07306823725 -0.0005259146565 0.004834800959 -0.0007542324602 0.004783666693 0.4572294354 0.6526356219
