!Created with skrf (http://scikit-rf.org).
# Hz S RI R 50.0 
!freq ReS11 ImS11 ReS21 ImS21 ReS12 ImS12 ReS22 ImS22
3800000000.0 0.03221961111 0.05258900226 -0.001540408353 0.0006862801383 -0.001622908283 0.0006564995274 -0.2900093198 0.6776266841
3801000000.0 0.0274536442 0.0495004168 -0.00144392543 0.0008699484169 -0.001456002705 0.000816007785 -0.231812641 0.7067553116
3802000000.0 0.0221904777 0.04747872664 -0.001404222217 0.0009298990481 -0.001502915286 0.0009364335565 -0.1726789027 0.7302128291
3803000000.0 0.0168244224 0.04672876168 -0.001319787581 0.001108371536 -0.001450960874 0.0009920097655 -0.1121391505 0.7480003218
3804000000.0 0.01137564238 0.04738286327 -0.001188867958 0.001212035422 -0.001306582941 0.001171988319 -0.05210876465 0.7607005625
3805000000.0 0.006139533129 0.04916661208 -0.00116252841 0.001356356428 -0.001290227403 0.001262492384 0.007975320332 0.7678930966
3806000000.0 0.001552317641 0.05221089261 -0.001082136063 0.001348357648 -0.00112827518 0.001381614595 0.06749366969 0.7703050647
3807000000.0 -0.002627815818 0.05621903754 -0.0008741182974 0.001436995226 -0.001057219575 0.001487731701 0.1262698323 0.7676858038
3808000000.0 -0.005978276022 0.06136060188 -0.0008354142774 0.00160279125 -0.0009498305735 0.001608485705 0.1836398244 0.7604956219
3809000000.0 -0.008265034296 0.06725945856 -0.0006860673893 0.001588144922 -0.0008441292448 0.001727355877 0.2394427955 0.749224002
3810000000.0 -0.009606109932 0.07365127022 -0.0006345096626 0.001762619009 -0.0006665286492 0.001742914901 0.2938450873 0.7336735464
3811000000.0 -0.0100427391 0.08082195342 -0.000485492812 0.001779479906 -0.000542632828 0.001776134013 0.3463881314 0.7144840701
3812000000.0 -0.009267255664 0.0882100293 -0.0004173727648 0.001772040385 -0.0004441746278 0.001840400975 0.3966626823 0.6918948442
3813000000.0 -0.007343430538 0.09585903676 -0.0001723417954 0.001797148259 -0.0003068026272 0.001895820489 0.4448076785 0.6659007037
3814000000.0 -0.004261199851 0.1035202841 -3.493130862e-05 0.001837647986 -0.0001110243757 0.001951932674 0.4904298186 0.6360561841
3815000000.0 -8.027377044e-05 0.1112120423 7.281210856e-05 0.001922674477 2.782581305e-06 0.001896130503 0.5335609913 0.6033530613
3816000000.0 0.005331731401 0.1187343062 0.0003104330972 0.001913818181 0.0001973914768 0.00191048719 0.5744001269 0.5676371605
3817000000.0 0.01194329467 0.1257870239 0.0003939273884 0.001885549631 0.0003853996459 0.002022481523 0.6124034524 0.5287412217
3818000000.0 0.01970808767 0.1323754343 0.0005475846701 0.001912170323 0.0003963607014 0.001933082938 0.6476391554 0.4869362582
3819000000.0 0.0285709314 0.1382535471 0.0007338144933 0.001754981116 0.0006369823241 0.001858353731 0.6795256734 0.4428405857
3820000000.0 0.0384946987 0.1433592004 0.0008696075529 0.001777503407 0.0007317508571 0.001860149787 0.707578361 0.3973432031
3821000000.0 0.04952349514 0.1474289486 0.0009220380452 0.001677760272 0.0009708143771 0.001768346294 0.7327645421 0.3494118612
3822000000.0 0.06113875285 0.1504995988 0.001077299705 0.001716278959 0.001145039569 0.001700514928 0.7544667125 0.298890499
3823000000.0 0.0736232847 0.1522822393 0.001188625931 0.001580488752 0.001159314066 0.001636511995 0.7718344927 0.2472965927
3824000000.0 0.08664977551 0.1527070841 0.001293537673 0.001505648252 0.001405271236 0.001591667882 0.7861685753 0.1937194285
3825000000.0 0.1002224237 0.1516576717 0.001470708637 0.001433676807 0.001552323811 0.00151238183 0.7963734865 0.1384249326
3826000000.0 0.1137010828 0.1490907995 0.001646811492 0.001307451865 0.001637416077 0.00141199294 0.8022239208 0.08248675764
3827000000.0 0.127379179 0.1452326833 0.001707277843 0.001270225737 0.001762236352 0.00131012476 0.8043321371 0.02555549538
3828000000.0 0.14065741 0.1397240107 0.001838705153 0.001096026972 0.001944275573 0.001227799221 0.8017837405 -0.03244855005
3829000000.0 0.1536473036 0.132796481 0.001954898937 0.0009930371307 0.002000363311 0.0009840435814 0.7943661809 -0.08997392794
3830000000.0 0.1659028083 0.1244841954 0.002042376203 0.0008621475426 0.002139849123 0.0009059128352 0.7824734449 -0.1478857344
3831000000.0 0.1777633131 0.1147040221 0.002105628839 0.0005833659088 0.002218679292 0.0007907461259 0.7657535672 -0.2056016834
3832000000.0 0.1887690127 0.1036064782 0.002218620386 0.0005246015498 0.002254575724 0.0006295141065 0.7438693047 -0.2627149242
3833000000.0 0.1985489726 0.09146099647 0.002363171196 0.0003900990123 0.002434270456 0.0004341691965 0.7170404792 -0.3184239914
3834000000.0 0.20729433 0.07799089475 0.002429626416 0.0002167147322 0.002403142396 0.0002466156147 0.6849258542 -0.3726841467
3835000000.0 0.2146051079 0.0634721392 0.002481855452 -3.764721623e-05 0.002515711589 0.0001042460208 0.6474685073 -0.4247712422
3836000000.0 0.2203960717 0.04812248005 0.002610536059 -0.000210189799 0.00259687542 -0.0001985450217 0.6052740216 -0.4739140892
3837000000.0 0.2245997041 0.03212112404 0.00260671624 -0.0004236995592 0.002709368709 -0.0003876834526 0.5577462912 -0.5202219168
3838000000.0 0.2270403951 0.01589158679 0.002606690861 -0.0006790819461 0.002650783863 -0.0006473754765 0.5054665208 -0.5626750966
3839000000.0 0.2279715985 -0.0006920245373 0.002598362975 -0.0009683428216 0.002698671538 -0.0008892823244 0.4482086897 -0.6008173271
3840000000.0 0.2271941006 -0.01711418679 0.00259335665 -0.001240662299 0.002649350557 -0.001180408755 0.3865865171 -0.6341077037
3841000000.0 0.2246657908 -0.03354002003 0.002494272077 -0.001492536976 0.002567179967 -0.001401271438 0.3210794032 -0.6617619805
3842000000.0 0.2204409987 -0.04953125643 0.002485418925 -0.00178342103 0.002442857251 -0.001743086032 0.2521487474 -0.6830968136
3843000000.0 0.2146363407 -0.06515806773 0.002242620103 -0.002082546009 0.002258587396 -0.001975429244 0.18007572 -0.697914818
3844000000.0 0.2071538717 -0.07986742615 0.002068966394 -0.002275980078 0.002138388809 -0.002234282438 0.105843395 -0.705384958
3845000000.0 0.1980868429 -0.09364543692 0.001834995812 -0.002612465993 0.001945552998 -0.00249889004 0.03003124893 -0.7053511832
3846000000.0 0.1875932664 -0.1061292237 0.001650027465 -0.002817371394 0.001767427893 -0.002723064274 -0.0468089655 -0.6974837187
3847000000.0 0.1758807153 -0.1171573755 0.001332331682 -0.003012012457 0.001456621452 -0.002886384493 -0.1222117916 -0.6814670586
3848000000.0 0.1632408947 -0.1265516588 0.001051102998 -0.003239794169 0.001246061176 -0.003034455935 -0.197127372 -0.656833666
3849000000.0 0.1500211805 -0.1342408157 0.0007822445477 -0.003357411828 0.0008646906936 -0.003168724943 -0.2693096399 -0.6242409095
3850000000.0 0.1362108141 -0.1404475179 0.0004537737987 -0.003397405613 0.0005737259053 -0.003287824104 -0.3378591239 -0.5837387314
3851000000.0 0.1221256182 -0.1445943753 8.008247823e-05 -0.003431242658 0.0002352324227 -0.003437995911 -0.4024361372 -0.5355695738
3852000000.0 0.1080555394 -0.1471792467 -0.0002381578961 -0.003438645275 -7.023490616e-05 -0.00336937746 -0.4607744813 -0.4810136728
3853000000.0 0.09410761297 -0.1480201405 -0.0006630552816 -0.003440997098 -0.0004448077816 -0.003444533097 -0.5135755539 -0.4198039054
3854000000.0 0.08053509146 -0.1473247045 -0.0009639938944 -0.003403247101 -0.0007852242561 -0.003384479787 -0.5588944554 -0.3533894258
3855000000.0 0.06744604558 -0.1449670399 -0.001335393987 -0.00328730233 -0.001111688209 -0.003314797301 -0.5967080593 -0.2829352134
3856000000.0 0.05508711189 -0.1410090068 -0.001626772224 -0.003172512865 -0.001464295317 -0.00324513088 -0.6263591647 -0.2086402549
3857000000.0 0.04379890114 -0.1356689967 -0.001957922941 -0.00299865054 -0.001781728584 -0.003072379623 -0.64785707 -0.1320814296
3858000000.0 0.03373526409 -0.1290250008 -0.002291446552 -0.00274011842 -0.002092014533 -0.002948396606 -0.6609625816 -0.05459466664
3859000000.0 0.02499818802 -0.1214997038 -0.002531351289 -0.00252192514 -0.002347463509 -0.002645890927 -0.6654781699 0.02384728982
3860000000.0 0.01765884086 -0.1131136128 -0.002733115805 -0.002223221352 -0.002603575587 -0.002437985037 -0.6617994905 0.1008381114
3861000000.0 0.0117056882 -0.104063014 -0.003013908165 -0.001906008809 -0.002829370787 -0.002152980305 -0.6502583027 0.1761619683
3862000000.0 0.007430519443 -0.09442399826 -0.003255120711 -0.001653691987 -0.003044699552 -0.001894984161 -0.6311104894 0.2490032686
3863000000.0 0.004843217786 -0.08465005889 -0.003272994887 -0.001330837724 -0.003158193314 -0.001530031441 -0.6048804522 0.3190135507
3864000000.0 0.003969911952 -0.07489338846 -0.003345394274 -0.0009354790091 -0.003337625181 -0.001180399908 -0.5723354816 0.3846814835
3865000000.0 0.004788232502 -0.0655741283 -0.003438276937 -0.0006533187698 -0.003406229895 -0.0008788458654 -0.534694016 0.4455518556
3866000000.0 0.006933879573 -0.05696072283 -0.003436586354 -0.000334474229 -0.003456745064 -0.0005427281139 -0.4916848242 0.5017143132
3867000000.0 0.01034839358 -0.04886832591 -0.003378118388 -2.223888441e-05 -0.003458738327 -0.000272348203 -0.4441502392 0.5527811074
3868000000.0 0.01500030048 -0.04159840001 -0.003391832346 0.0003114895371 -0.003436692292 9.296185453e-05 -0.3929986954 0.5982176069
3869000000.0 0.02081360482 -0.03527934297 -0.003300773213 0.0006714713527 -0.003388587618 0.0003775772348 -0.3389828205 0.6381841822
3870000000.0 0.02767744288 -0.03002883783 -0.003190670162 0.0008574787644 -0.003351641819 0.0006364598521 -0.282322377 0.6721008448
3871000000.0 0.03544497117 -0.0261094324 -0.003178936196 0.001142809284 -0.003199876985 0.0009029664798 -0.2238572985 0.7008289393
3872000000.0 0.0438879393 -0.02352703854 -0.002992490772 0.001345330966 -0.003144879825 0.001188270748 -0.1635687202 0.7237754535
3873000000.0 0.05277403817 -0.02243480417 -0.002860727021 0.001534466282 -0.003019283758 0.001409837976 -0.1036747396 0.7413029417
3874000000.0 0.061833933 -0.02282647145 -0.00268968707 0.001825452084 -0.002873712918 0.001711885212 -0.04258453101 0.7531023207
3875000000.0 0.07109820098 -0.02469636894 -0.002535057254 0.001988857053 -0.002725103172 0.001942632836 0.01803097501 0.7599465647
3876000000.0 0.08017312735 -0.02802434466 -0.002395023359 0.002211197978 -0.002615744248 0.002166129882 0.07810628414 0.7617446048
3877000000.0 0.08904519677 -0.03279703753 -0.002211472718 0.002328493632 -0.002312968718 0.002260935493 0.137410298 0.7586071343
3878000000.0 0.09754559398 -0.03899094585 -0.00199000421 0.002540242625 -0.0021869177 0.002546172123 0.1957670897 0.7508486153
3879000000.0 0.1053813621 -0.04657786831 -0.001775660436 0.002659727354 -0.001989690587 0.002724747406 0.2521826923 0.738638929
3880000000.0 0.1125510484 -0.0556367566 -0.001639421447 0.002803583629 -0.001803619671 0.002931053052 0.3071699142 0.7223047785
3881000000.0 0.1186771989 -0.06599837833 -0.001355238957 0.002958089113 -0.001505022054 0.003001696663 0.3604671657 0.7016219747
3882000000.0 0.1235921755 -0.07754286351 -0.001106367912 0.003084910568 -0.0012982029 0.003138613887 0.4113657176 0.6774673505
3883000000.0 0.1273215115 -0.09016267741 -0.0008557076217 0.003212529235 -0.0009955203859 0.003283620812 0.4595775604 0.6495280019
3884000000.0 0.129538551 -0.1037476542 -0.0006112848641 0.003221270861 -0.0007826176588 0.003312880406 0.5059254766 0.6183561499
3885000000.0 0.1301348507 -0.1180570901 -0.0003908539948 0.003295386909 -0.0004794948618 0.003413931699 0.549097538 0.5837627597
3886000000.0 0.1288788319 -0.133003893 -4.607757e-05 0.003327077953 -0.0002045379661 0.00341401645 0.589779377 0.5459376431
3887000000.0 0.1256346703 -0.1481571188 0.000157508257 0.003333186032 0.0001130023156 0.003469232935 0.6277973652 0.5055758551
3888000000.0 0.120677948 -0.1632122294 0.0004659939441 0.003328247927 0.0004300767032 0.00345126912 0.6618829966 0.4623077989
3889000000.0 0.1136637926 -0.1780400206 0.0008029615274 0.003344947007 0.0007507945411 0.003498907899 0.6927672625 0.4169817321
3890000000.0 0.104790546 -0.1924713711 0.00103274791 0.003243473126 0.0009760415414 0.00341770635 0.7202822566 0.3690973577
3891000000.0 0.09409496933 -0.2060378443 0.0013475694 0.003199496772 0.001275104587 0.003353924956 0.7443127036 0.3194957375
3892000000.0 0.08175761998 -0.2186109178 0.001667784527 0.003082911484 0.001567518222 0.003279166296 0.7642328143 0.2681803458
3893000000.0 0.06793272495 -0.2302144256 0.001929288963 0.002998740645 0.001887304243 0.003111780621 0.7809080482 0.2144324625
3894000000.0 0.05257535726 -0.2404635041 0.002135465154 0.002786328318 0.002129553584 0.002983924001 0.7931845784 0.1594937083
3895000000.0 0.0358199589 -0.2491342832 0.002414087299 0.002639309503 0.002284041606 0.002776852343 0.801353693 0.1033531983
3896000000.0 0.01798764057 -0.2561759065 0.002641684376 0.002444491256 0.002563001821 0.002623901004 0.8049429655 0.04695863054
3897000000.0 -0.0009901516605 -0.2614339759 0.002794369357 0.002227629535 0.002820056863 0.002403116552 0.8044211864 -0.01035212873
3898000000.0 -0.0206412971 -0.2646299781 0.003046483966 0.002028994029 0.003049105406 0.002149216831 0.7993586063 -0.06874376401
3899000000.0 -0.04073113203 -0.2656937296 0.003214485943 0.001800337923 0.003252432216 0.001882110955 0.7894838452 -0.1268576256
3900000000.0 -0.06094721332 -0.2645505767 0.003410829697 0.00151423167 0.003362995572 0.001647902653 0.7747063637 -0.1850563529
3901000000.0 -0.08117058873 -0.2613641027 0.003570389701 0.001213321579 0.003570703091 0.001422416652 0.7552834749 -0.2415996829
3902000000.0 -0.1008619815 -0.2561374374 0.003680548398 0.0009350081673 0.003730714787 0.001066143042 0.7304757833 -0.2979861293
3903000000.0 -0.1200572774 -0.2489174458 0.003813308431 0.0006106050569 0.003877408337 0.0007991658058 0.7009962201 -0.3527205929
3904000000.0 -0.1385335773 -0.2397732017 0.003917458002 0.0002348453709 0.00390536827 0.0004678929108 0.666033566 -0.4057362658
3905000000.0 -0.1560429186 -0.2287776132 0.003939855378 -5.549093203e-06 0.004019293934 7.850215479e-05 0.6262000799 -0.4560004793
3906000000.0 -0.1723772585 -0.2161213387 0.004034276586 -0.0003441595181 0.004039800726 -0.0002514201915 0.5815069079 -0.5033854161
3907000000.0 -0.1873105764 -0.201907571 0.003994059283 -0.0007117865607 0.0040382687 -0.0006071879179 0.5313529968 -0.5476237069
3908000000.0 -0.2008632869 -0.1862314177 0.003956824541 -0.001069599646 0.004053249955 -0.0009537942824 0.4771351814 -0.5873882218
3909000000.0 -0.2127512842 -0.1692417936 0.00391396042 -0.001522760722 0.003903707257 -0.001432767021 0.4185723364 -0.6224472161
3910000000.0 -0.2228546143 -0.1513041368 0.003809520975 -0.001800715108 0.003809147514 -0.001716976287 0.3557385802 -0.652563183
3911000000.0 -0.2310572565 -0.1323833938 0.003635321045 -0.002246554242 0.00375791057 -0.002047515241 0.2888762057 -0.6770746273
3912000000.0 -0.2373539954 -0.1127229118 0.003429746255 -0.002588436706 0.003568169428 -0.00245880126 0.2189026028 -0.6953853297
3913000000.0 -0.2415812612 -0.0927636861 0.00325087551 -0.002913914388 0.003410709556 -0.00277298037 0.1464116573 -0.7068732184
3914000000.0 -0.2436600775 -0.07248923953 0.003073369386 -0.00321795512 0.00314254663 -0.003120945999 0.07245593518 -0.7108093157
3915000000.0 -0.2437130511 -0.05223242253 0.002815712709 -0.003576947609 0.00295635988 -0.003441145178 -0.002881261054 -0.7073482661
3916000000.0 -0.241643697 -0.03195540041 0.002531050704 -0.003902091878 0.002629162278 -0.003853996517 -0.07820237428 -0.69586712
3917000000.0 -0.2371256351 -0.0120257361 0.002086372115 -0.004177568946 0.002294008387 -0.004130741116 -0.1533566564 -0.6766707975
3918000000.0 -0.2306471169 0.006826312593 0.001769865747 -0.004420851823 0.001860401244 -0.004325141199 -0.2261887938 -0.6490494106
3919000000.0 -0.221991688 0.02487478543 0.001309824758 -0.004602376372 0.001431804849 -0.004490852356 -0.2963366807 -0.6139398583
3920000000.0 -0.2114923745 0.04130027862 0.0007910835557 -0.004804106895 0.0009659924544 -0.004707047716 -0.363088727 -0.5707262631
3921000000.0 -0.1992888749 0.05629260229 0.0003031417145 -0.004895710386 0.0005666557117 -0.004859614186 -0.4254814386 -0.5202468177
3922000000.0 -0.1855790466 0.06960306202 -0.0001316727721 -0.004918593448 3.907351856e-05 -0.004934081808 -0.4818612039 -0.4632790948
3923000000.0 -0.1706136763 0.08099037587 -0.0006510376697 -0.004907940514 -0.0003437046253 -0.004913925193 -0.5317888856 -0.4005828413
3924000000.0 -0.15453206 0.09030189724 -0.001214350574 -0.004816464148 -0.001001577592 -0.004858597647 -0.5748087764 -0.3325791885
3925000000.0 -0.1374388784 0.09744732507 -0.001654617372 -0.004742414691 -0.001442341483 -0.004797579721 -0.6100050211 -0.2604403547
3926000000.0 -0.1199459061 0.1019997455 -0.002177045681 -0.004497107584 -0.001957425615 -0.004692131653 -0.6371753812 -0.1851265854
3927000000.0 -0.1024883464 0.1040401409 -0.002615279518 -0.004241839051 -0.002469572704 -0.004457985051 -0.6558367014 -0.1076455181
3928000000.0 -0.08528835326 0.1039325074 -0.003045242513 -0.00399797596 -0.002887920942 -0.004158444237 -0.6662262082 -0.02877557939
3929000000.0 -0.06883740425 0.1013161711 -0.003473982215 -0.003682002425 -0.00325892237 -0.003898847848 -0.6678507328 0.05002549119
3930000000.0 -0.05297410861 0.09675452509 -0.003760835622 -0.003237680066 -0.003651691368 -0.003494745586 -0.6614589095 0.1275510279
3931000000.0 -0.03815974668 0.09004812022 -0.004051156808 -0.002805816242 -0.003959494177 -0.003121577203 -0.6468898058 0.2032315817
3932000000.0 -0.02459484898 0.08155217658 -0.00443216227 -0.002401271602 -0.004217755981 -0.002658247249 -0.6247470975 0.2761109393
3933000000.0 -0.01283587236 0.0711342434 -0.004535361193 -0.001957515953 -0.00446984265 -0.002275659703 -0.5958099961 0.3454847689
3934000000.0 -0.002794793341 0.05926339886 -0.004706785083 -0.001541763078 -0.004644489381 -0.001798168174 -0.5603135824 0.4107110023
3935000000.0 0.00521198241 0.04602607641 -0.004730354995 -0.001014538459 -0.004704222083 -0.001284175785 -0.5186565518 0.4715406159
3936000000.0 0.01090732217 0.03182537448 -0.004846496042 -0.0005913229543 -0.004823161289 -0.0008166708867 -0.4722848833 0.5268857896
3937000000.0 0.01420779433 0.01694493132 -0.004808492493 -0.0001180698891 -0.004829487763 -0.0003693429462 -0.4215896726 0.5766443238
3938000000.0 0.01494420879 0.001972504744 -0.004688621499 0.0003300067328 -0.004796253517 7.046128303e-05 -0.3670839369 0.6204403445
3939000000.0 0.0134175187 -0.01293282669 -0.004714024719 0.0007231562631 -0.004775166512 0.0005263396306 -0.3096806705 0.6587363578
3940000000.0 0.009591962211 -0.02749489397 -0.004470135551 0.001144889626 -0.00468502054 0.0009676946793 -0.2504875362 0.6907579606
3941000000.0 0.003367285943 -0.04148058546 -0.004367894493 0.001603535027 -0.004530990962 0.001450768672 -0.189265281 0.7170871958
3942000000.0 -0.004999661352 -0.05439442369 -0.004143651109 0.001950425212 -0.004382051528 0.001716228318 -0.1269096881 0.7374239714
3943000000.0 -0.01543030608 -0.06605300641 -0.004015732091 0.002163822763 -0.004157728981 0.002121825935 -0.06417623162 0.7515543542
3944000000.0 -0.02789174579 -0.07610039632 -0.003755021142 0.002541898051 -0.003912239801 0.002475332934 -0.001445127884 0.760492761
3945000000.0 -0.0418074429 -0.08424952374 -0.003460445208 0.002865151735 -0.00366262882 0.002769580111 0.06133113429 0.7638892839
3946000000.0 -0.05717030913 -0.09040344375 -0.003192816395 0.003120910842 -0.003393108957 0.003019756405 0.1229004711 0.762062498
3947000000.0 -0.07372937351 -0.0943475336 -0.002872602316 0.003302847035 -0.003129054094 0.003250634298 0.1832944006 0.7549081791
3948000000.0 -0.09113119543 -0.09578773306 -0.002611590549 0.003507961519 -0.002766429679 0.003516620724 0.2425940633 0.7433070039
3949000000.0 -0.1089403108 -0.09468445276 -0.002244548406 0.003771134885 -0.00252164714 0.003761706641 0.2993890643 0.7269431105
3950000000.0 -0.126813516 -0.0909330843 -0.002006063936 0.00391065795 -0.002062725835 0.003921530209 0.3546325564 0.706170396
3951000000.0 -0.1441992521 -0.08469138419 -0.001636648318 0.003999464214 -0.001717776642 0.004164034501 0.4076169431 0.6812800552
