!Created with skrf (http://scikit-rf.org).
# Hz S RI R 50.0 
!freq ReS11 ImS11 ReS21 ImS21 ReS12 ImS12 ReS22 ImS22
3800000000.0 0.03610931337 0.06510657964 0.003255331656 0.004098631442 0.00305430498 0.004369752947 -0.2893196344 0.6777355714
3801000000.0 0.0321154967 0.06104047768 0.003579290817 0.003730588593 0.003349795472 0.004017571919 -0.2309713662 0.7072891986
3802000000.0 0.02775674127 0.05810370515 0.003870363347 0.003343156073 0.003739621956 0.003715384519 -0.1712677032 0.7305142421
3803000000.0 0.02280471474 0.05619570236 0.0040843077 0.002979525831 0.003925510217 0.00328999944 -0.1113596335 0.7481711397
3804000000.0 0.01760716923 0.05552628397 0.004262304399 0.002621124499 0.004221866373 0.002851638943 -0.05133382231 0.7607282853
3805000000.0 0.01233610231 0.05616596744 0.004381954204 0.002224106109 0.004353661556 0.002548562596 0.009323940612 0.768077792
3806000000.0 0.007472737692 0.05818986539 0.004571002908 0.001855161623 0.0044694799 0.002086889697 0.06881395727 0.7699024296
3807000000.0 0.003112785518 0.06125365583 0.004609018099 0.001363607706 0.004574197344 0.001700971392 0.1267852932 0.7677932373
3808000000.0 -0.0006336057559 0.06532085152 0.004657473881 0.001017298317 0.004762056284 0.001282743528 0.1847959161 0.7603627895
3809000000.0 -0.003706580494 0.07032139406 0.004708216526 0.0006143256323 0.00475778291 0.0008520737174 0.2402796298 0.7491581656
3810000000.0 -0.006017457694 0.07614065061 0.004733086564 0.000234624953 0.00483065797 0.0004456071474 0.295168817 0.7331544967
3811000000.0 -0.007228814531 0.08291039815 0.004673884716 -8.948918548e-05 0.004755960777 0.0001691174548 0.3474871814 0.7143066418
3812000000.0 -0.007293391041 0.09012857844 0.004527628422 -0.0004651945492 0.004731710535 -0.0002496595553 0.397330761 0.6914919569
3813000000.0 -0.006218227092 0.09762511683 0.00449403096 -0.000817867869 0.004688846413 -0.0006027557538 0.4455970526 0.6654644073
3814000000.0 -0.003940617666 0.1054982329 0.004445516039 -0.001098104753 0.004623447545 -0.0009202217916 0.4912656546 0.6356186654
3815000000.0 -0.0005150731304 0.1133594753 0.004341342021 -0.001472988282 0.004539534915 -0.001266443171 0.5349332094 0.6024791113
3816000000.0 0.004327851813 0.1211935495 0.004199897405 -0.001763698994 0.004435120616 -0.001617284259 0.5756822824 0.5663845837
3817000000.0 0.01044326648 0.1286444458 0.004070295487 -0.002109327586 0.00426496705 -0.001993546961 0.6136375666 0.5276357531
3818000000.0 0.01780184358 0.1357398414 0.003878644202 -0.002377396217 0.004173762631 -0.002322889632 0.6481822729 0.4864291201
3819000000.0 0.02629509009 0.1422072798 0.00365304458 -0.002584451577 0.003916561138 -0.002676333301 0.6800145507 0.4425013098
3820000000.0 0.03596559539 0.1478551118 0.003458078252 -0.003025442827 0.003750645323 -0.002967581153 0.7081600428 0.3964883791
3821000000.0 0.04668867961 0.152643574 0.003209888237 -0.003247130197 0.00345134805 -0.003269186709 0.7329671979 0.348548654
3822000000.0 0.05832114816 0.1562788876 0.003043839941 -0.003448041622 0.003241656115 -0.003561204299 0.7547494173 0.2980115654
3823000000.0 0.07094922662 0.158522061 0.002707636682 -0.003774607321 0.002970021451 -0.003778346814 0.7729083896 0.2455122316
3824000000.0 0.08405615389 0.1594245978 0.002462325152 -0.004042028449 0.002686295193 -0.004034003243 0.786619246 0.1926224356
3825000000.0 0.09754529595 0.1588177317 0.002087801695 -0.00423390232 0.002338713733 -0.004339484964 0.7965428233 0.1376362915
3826000000.0 0.1112869233 0.1566540361 0.001849421184 -0.004343932495 0.001990759047 -0.004469808657 0.8024410605 0.08149916557
3827000000.0 0.1247549504 0.1534801234 0.001464674482 -0.004580097739 0.001728167408 -0.004664619453 0.8045310974 0.0244181515
3828000000.0 0.1381694376 0.148723088 0.001076052897 -0.004646060523 0.001265899278 -0.00486477185 0.8018426895 -0.03297964719
3829000000.0 0.1514520198 0.1425446252 0.0006824887241 -0.00483723497 0.0008350426215 -0.004905388225 0.7945167422 -0.09138663566
3830000000.0 0.1643417329 0.1348335219 0.0002791390871 -0.004955681041 0.0003872194211 -0.005069350358 0.7825102806 -0.1493299463
3831000000.0 0.1765942574 0.1256181682 -0.0001364541095 -0.004975954071 -7.513531455e-05 -0.005067266058 0.7656995058 -0.2066962112
3832000000.0 0.1882084757 0.1150378926 -0.0005674978602 -0.005024934188 -0.0004339239676 -0.005131110083 0.7436531782 -0.2637659123
3833000000.0 0.1987008452 0.102978625 -0.0009517865255 -0.005027285777 -0.0008978313999 -0.005069938488 0.7166944742 -0.3189891126
3834000000.0 0.2076042891 0.09006516421 -0.001438598381 -0.004955603741 -0.001339784241 -0.0050694081 0.6847746968 -0.3732708319
3835000000.0 0.2156376839 0.07589440632 -0.001889989479 -0.004847243894 -0.001852362184 -0.004975980613 0.6474262476 -0.4252876174
3836000000.0 0.2219096571 0.06127133238 -0.002342032269 -0.004768810235 -0.002212825464 -0.004909641575 0.6048906446 -0.4748084477
3837000000.0 0.2268617451 0.04586955838 -0.002739172662 -0.004584888928 -0.002640535589 -0.004703011829 0.5573307276 -0.5208462638
3838000000.0 0.2301279008 0.03023487271 -0.003180312924 -0.004369528964 -0.003122500842 -0.004498899449 0.5050898194 -0.563365978
3839000000.0 0.2321524471 0.0142258155 -0.003658223664 -0.004148974549 -0.003513145959 -0.004199928604 0.4475399852 -0.6016100905
3840000000.0 0.232371673 -0.001826343703 -0.004127486609 -0.003887301777 -0.003869718174 -0.00400820747 0.3860414326 -0.6347663036
3841000000.0 0.2310527563 -0.01798281768 -0.004396142438 -0.0035183453 -0.004373186268 -0.003616394708 0.3206413388 -0.6620685623
3842000000.0 0.2281223536 -0.03371840891 -0.004759625532 -0.003182476852 -0.004659147002 -0.003257391741 0.251852572 -0.6833766768
3843000000.0 0.2238172293 -0.04911282701 -0.005159194581 -0.002689855872 -0.005009816028 -0.002835094696 0.1796212345 -0.6982442353
3844000000.0 0.2179926634 -0.06393856131 -0.005389413331 -0.002229729434 -0.00530294003 -0.002416773932 0.1048731133 -0.7058124632
3845000000.0 0.2105973065 -0.07777170612 -0.005678422749 -0.001606580918 -0.005542994477 -0.001894070883 0.02907343581 -0.7057801369
3846000000.0 0.2021253109 -0.09072605847 -0.005904957186 -0.001181602944 -0.005747015588 -0.001332016313 -0.04696941376 -0.6975266764
3847000000.0 0.1924201995 -0.1024122996 -0.005979564972 -0.0005197910359 -0.00588216912 -0.0008916025981 -0.1232437417 -0.681307385
3848000000.0 0.1817980558 -0.1132414643 -0.00608381303 3.177325198e-05 -0.006011357997 -0.0002500774572 -0.1974972039 -0.6568528919
3849000000.0 0.1701778024 -0.1228287507 -0.006071279291 0.0005742061767 -0.006047448143 0.0003085386998 -0.2698944211 -0.6240353439
3850000000.0 0.1576256007 -0.1308816266 -0.00603256654 0.001144508715 -0.006002577953 0.0009532713448 -0.3386428058 -0.5836325291
3851000000.0 0.144408837 -0.1374572516 -0.005917273462 0.00179194496 -0.005942333955 0.001515900949 -0.4028136432 -0.5353806255
3852000000.0 0.1306492835 -0.1422649555 -0.005736920051 0.002433622954 -0.005795578007 0.002135605551 -0.4615953267 -0.4803266201
3853000000.0 0.1166606545 -0.1452772039 -0.005547493696 0.003104096977 -0.005545044318 0.002690091264 -0.5137867332 -0.4194672171
3854000000.0 0.1028725132 -0.1463767328 -0.005237675738 0.003535719588 -0.005326338578 0.003263338236 -0.5593928099 -0.3528374109
3855000000.0 0.08957055211 -0.1457239191 -0.00477137696 0.004121250007 -0.004989845213 0.00373614952 -0.5968461633 -0.2826256035
3856000000.0 0.07692266256 -0.1435418458 -0.004342057742 0.004507724196 -0.004553281236 0.004197542556 -0.6266408563 -0.2083942119
3857000000.0 0.06512005627 -0.139725007 -0.003777591046 0.004938161466 -0.004128991161 0.004654703196 -0.6480727792 -0.1315712307
3858000000.0 0.0543217212 -0.1347354926 -0.003337645205 0.005314161535 -0.00354908756 0.004959945101 -0.661029458 -0.05397294627
3859000000.0 0.04468584806 -0.1285308225 -0.002720148535 0.005567992106 -0.003088034457 0.00532703707 -0.6653208137 0.0243821433
3860000000.0 0.03652396053 -0.1213226985 -0.002144514816 0.005738729145 -0.00248532882 0.005584364757 -0.6615694165 0.1018747843
3861000000.0 0.02974361554 -0.1135563798 -0.001528663328 0.005850916728 -0.001987983007 0.005780617706 -0.6501207352 0.1767805433
3862000000.0 0.02440274879 -0.105206773 -0.0009762522532 0.005883201025 -0.001417876221 0.005846211221 -0.6310176253 0.2497219952
3863000000.0 0.0206787996 -0.09649523607 -0.0003730519093 0.005962288938 -0.0008559374255 0.005889737979 -0.604662478 0.3195090204
3864000000.0 0.01842106506 -0.08784800138 0.0002059764811 0.005875638686 -0.0002715520095 0.0059090578 -0.5723646283 0.3850738926
3865000000.0 0.01755534485 -0.07940204835 0.0007054855814 0.005708161276 0.0003472614626 0.005895055365 -0.5340915322 0.4462542814
3866000000.0 0.01801868714 -0.07107169549 0.001229999587 0.005638713948 0.0007665219018 0.005726587493 -0.4911973774 0.5023269329
3867000000.0 0.01981697045 -0.06325468532 0.001662233262 0.005437490065 0.001344253309 0.005629556254 -0.4434849918 0.5532889374
3868000000.0 0.02299720421 -0.05576029579 0.002124628983 0.005237133708 0.001754856785 0.005452618003 -0.3925098479 0.5986252512
3869000000.0 0.02753445692 -0.04919898349 0.002507768339 0.005010508001 0.002209568396 0.00521471398 -0.3386594951 0.6383983538
3870000000.0 0.03319229931 -0.04349861444 0.002906126436 0.004647057503 0.00267272396 0.004958501086 -0.2811958194 0.6727571637
3871000000.0 0.03988611326 -0.0390486469 0.003252455499 0.004431246314 0.003115007654 0.004707252141 -0.2229940295 0.7010834867
3872000000.0 0.0475753285 -0.03582461498 0.003679650836 0.004009431694 0.003480944782 0.004452117719 -0.1637333333 0.7239378795
3873000000.0 0.05568301305 -0.0340408258 0.00389477401 0.003674925305 0.003773850156 0.003996431362 -0.1034235507 0.7413414517
3874000000.0 0.06433725357 -0.03365013881 0.004138479941 0.003361250507 0.004197275266 0.003668022808 -0.04259544238 0.753310278
3875000000.0 0.07339397818 -0.03492030315 0.004438694101 0.002927505644 0.00441781804 0.003198799212 0.01810860448 0.7600677169
3876000000.0 0.08228744566 -0.03771416781 0.004538047127 0.002542255446 0.004621234722 0.002880331594 0.07855644077 0.7617870602
3877000000.0 0.0910769105 -0.04197239568 0.004764890298 0.002169043291 0.004733754788 0.00248877611 0.1381160617 0.7586893825
3878000000.0 0.09960354865 -0.04790450762 0.004881033674 0.00176817982 0.004959038924 0.002059320919 0.1957816929 0.7509498606
3879000000.0 0.1076453179 -0.05539849035 0.005007765256 0.001417853404 0.005048404913 0.001683563925 0.2528052032 0.7389091311
3880000000.0 0.1148665547 -0.06447341457 0.005045285914 0.001023033052 0.005228582304 0.001207913738 0.3077618778 0.7222407287
3881000000.0 0.1209533662 -0.07503225395 0.005049287807 0.0005962672876 0.005252399947 0.0008031954058 0.3607368171 0.7019256437
3882000000.0 0.1257290691 -0.08700656055 0.005135919899 0.0002346024994 0.005324195605 0.0004126750282 0.4114550054 0.6775351618
3883000000.0 0.1288180947 -0.09991478682 0.005096990149 -0.0002047067392 0.005220144056 4.066343536e-06 0.4603885114 0.6495239039
3884000000.0 0.1304334104 -0.113584019 0.005112081766 -0.0006151111447 0.005269992165 -0.0004020532942 0.5063071251 0.6181534867
3885000000.0 0.1301533729 -0.1277009229 0.005014145281 -0.001036850852 0.005204536021 -0.0008209698135 0.5496734381 0.5838001052
3886000000.0 0.1281724572 -0.1421986095 0.004924878012 -0.001436957624 0.005122304894 -0.001258109347 0.5899617076 0.5461638313
3887000000.0 0.1245366782 -0.1567316954 0.004782642238 -0.001773802098 0.005007111002 -0.001624524244 0.6275615692 0.5058274627
3888000000.0 0.1191516221 -0.171052564 0.004677571356 -0.002161724959 0.004899148364 -0.002078673802 0.6619641185 0.4625399035
3889000000.0 0.1120557263 -0.1853380525 0.004446447827 -0.002570657292 0.004754876718 -0.002451871056 0.6929130554 0.4170283601
3890000000.0 0.1031833738 -0.1991024688 0.004291249905 -0.002887670184 0.0044332291 -0.002765100216 0.7203825116 0.36940564
3891000000.0 0.09278645366 -0.2121694526 0.004103876185 -0.003219677135 0.004323083907 -0.003152312944 0.7444043756 0.319580252
3892000000.0 0.08049881458 -0.2246430819 0.003795531811 -0.003572000423 0.004066237714 -0.003522005165 0.764752984 0.2677226501
3893000000.0 0.06677167863 -0.2358903843 0.003598705167 -0.003845020197 0.003745674621 -0.003895125119 0.7809856534 0.2146208725
3894000000.0 0.05139654875 -0.2457790269 0.003308706917 -0.00421432592 0.003528361209 -0.004218520597 0.7932776809 0.1597451708
3895000000.0 0.03494552523 -0.2541705999 0.002914115088 -0.004403031431 0.003172897967 -0.004505567718 0.8014637232 0.1040177877
3896000000.0 0.01726989076 -0.2610597796 0.002594886348 -0.004709005356 0.002765208716 -0.004768358078 0.805390656 0.04685107241
3897000000.0 -0.001261993893 -0.2660103697 0.002197400434 -0.004939836916 0.002431518864 -0.005034225062 0.8047682643 -0.01077642915
3898000000.0 -0.0206588544 -0.269083601 0.001747938571 -0.005246132612 0.002024664776 -0.005268115085 0.7997504473 -0.0689981836
3899000000.0 -0.04015341401 -0.2701953568 0.001380742644 -0.005333404057 0.00158080447 -0.005398735404 0.7898213863 -0.1271846014
3900000000.0 -0.06008774415 -0.2693330331 0.001004000078 -0.005525837652 0.001077999361 -0.005549404304 0.7749850154 -0.1849758645
3901000000.0 -0.08009632677 -0.2663591255 0.0005041700206 -0.005659726914 0.0006265780539 -0.005660194904 0.7553940415 -0.2424559436
3902000000.0 -0.09972724319 -0.2613175579 -6.753153139e-05 -0.005790169816 0.0001012831272 -0.005829444621 0.7307122946 -0.2982577385
3903000000.0 -0.1188028008 -0.2542876203 -0.0004724704777 -0.005741722882 -0.0003801887797 -0.005906125531 0.7011982799 -0.3528071083
3904000000.0 -0.1373144537 -0.2452965292 -0.000979358796 -0.005711197387 -0.0009253608296 -0.00586395245 0.6662700772 -0.4056656908
3905000000.0 -0.1545851976 -0.2345124183 -0.001504959189 -0.005691413768 -0.001339322771 -0.005783692468 0.6264395714 -0.4560477525
3906000000.0 -0.1707739234 -0.2221560158 -0.001988225384 -0.005631130189 -0.001819525729 -0.005693546031 0.5815371275 -0.5034169859
3907000000.0 -0.1856958717 -0.2080839802 -0.002526957542 -0.005518737715 -0.002410473535 -0.005563302431 0.5317530632 -0.5477009955
3908000000.0 -0.1991243809 -0.1925065207 -0.003137493972 -0.005241837818 -0.002950408496 -0.005405414384 0.477449894 -0.5875425317
3909000000.0 -0.2107817978 -0.1757871462 -0.003622045042 -0.005017125048 -0.003452127334 -0.005185433198 0.4186870754 -0.6228254987
3910000000.0 -0.2207422107 -0.1581859171 -0.004043025896 -0.004783669021 -0.00389679824 -0.004909283016 0.3557881713 -0.6530674079
3911000000.0 -0.2287108302 -0.1397820966 -0.004533342086 -0.004421572667 -0.004342013504 -0.004579900298 0.2888873816 -0.6775258216
3912000000.0 -0.2348369509 -0.120775623 -0.005004463717 -0.003958424553 -0.004859459586 -0.004191394895 0.2192970216 -0.6956224147
3913000000.0 -0.2390814275 -0.1011201825 -0.005362819415 -0.00355892512 -0.005216856953 -0.003762486391 0.1471407562 -0.7069711656
3914000000.0 -0.2411234379 -0.08147895165 -0.005766298156 -0.003080973634 -0.005548791494 -0.003282024991 0.07254549861 -0.7111068887
3915000000.0 -0.2410081178 -0.06184485871 -0.006066725589 -0.002489951206 -0.005974270403 -0.002782911994 -0.002899117302 -0.7077172525
3916000000.0 -0.2388139367 -0.0426114437 -0.006329528056 -0.001965285279 -0.006206980441 -0.002238032641 -0.07835344225 -0.6963305976
3917000000.0 -0.2344023436 -0.02383494674 -0.006575969979 -0.001442811801 -0.006526865531 -0.001667992095 -0.1531548053 -0.6769073097
3918000000.0 -0.2280865312 -0.006164322 -0.006756214891 -0.0007401440525 -0.006719375029 -0.0009883778403 -0.226201877 -0.6492982068
3919000000.0 -0.219943732 0.0104964156 -0.006818588823 -7.665136945e-05 -0.006759050302 -0.0003980100737 -0.2966711819 -0.6139872028
3920000000.0 -0.2103551328 0.0255256833 -0.006845526863 0.0005669036764 -0.006783564575 0.0002961076389 -0.3635340929 -0.5709143189
3921000000.0 -0.1992593706 0.03926647252 -0.006773158908 0.001246667001 -0.006854460575 0.0009925398044 -0.4254918396 -0.520550418
3922000000.0 -0.1868274361 0.05147766613 -0.006666271482 0.001986552263 -0.006723274477 0.001627202379 -0.4818696082 -0.4637748439
3923000000.0 -0.1736109108 0.06153926094 -0.006398088299 0.002613379387 -0.006534028798 0.002273213584 -0.5320617557 -0.4007197139
3924000000.0 -0.1594795734 0.06995103164 -0.006159165874 0.003287779866 -0.006320755463 0.002977108816 -0.5749442577 -0.33270657
3925000000.0 -0.1447641999 0.07631631356 -0.005819696467 0.003857763484 -0.005977603141 0.003488915507 -0.6102313399 -0.2607116203
3926000000.0 -0.1299282759 0.08068192295 -0.005474647507 0.004427851178 -0.005631327163 0.004156274255 -0.6375085115 -0.1847822257
3927000000.0 -0.1151265129 0.08304135926 -0.004975660238 0.004887821618 -0.005237980746 0.004702454433 -0.6560860276 -0.1074443561
3928000000.0 -0.1004933715 0.08349254502 -0.004388633184 0.005391990766 -0.004680073354 0.00514162425 -0.6661915183 -0.0288602508
3929000000.0 -0.0864174515 0.08207404845 -0.003838097444 0.005798785016 -0.004253671505 0.005596270785 -0.6681032777 0.04993025518
3930000000.0 -0.07312980294 0.07885481291 -0.003250559093 0.006093835924 -0.003662772942 0.005939011928 -0.6615194678 0.1276315514
3931000000.0 -0.06065730378 0.07395819506 -0.002653251635 0.006305113435 -0.003011213848 0.006285449024 -0.6471214294 0.2033342971
3932000000.0 -0.04916357249 0.06738469859 -0.001972571481 0.00654985616 -0.002346144989 0.006437317003 -0.6249238849 0.2761063592
3933000000.0 -0.03919561207 0.05934415702 -0.001299224328 0.006627493538 -0.001757072285 0.006656292826 -0.5955964923 0.3459815717
3934000000.0 -0.03076824546 0.05013747032 -0.0007554431795 0.006729620509 -0.001128265751 0.006741456222 -0.5599503517 0.4112383168
3935000000.0 -0.02386526577 0.03993796833 -0.000129417851 0.006670794915 -0.0004397526209 0.006727861706 -0.518593967 0.4717216033
3936000000.0 -0.01864479855 0.02881156395 0.0005248514353 0.006625117734 0.0001370924147 0.006728963926 -0.4720566869 0.527247011
3937000000.0 -0.01550283097 0.01718251769 0.001115844701 0.00648034038 0.0006839726702 0.006652483251 -0.4214863479 0.5767662045
3938000000.0 -0.01428130083 0.005098282352 0.001630919171 0.006340904161 0.0013082308 0.006536717527 -0.3672717512 0.6206425436
3939000000.0 -0.01518019848 -0.007159729626 0.00223380723 0.00609126268 0.001852739835 0.006399040576 -0.3099902868 0.6587162426
3940000000.0 -0.01825919189 -0.01912282388 0.002747956663 0.005933048669 0.002418122953 0.006136518903 -0.2506859303 0.690956445
3941000000.0 -0.02340640873 -0.03041576701 0.003149237018 0.005612203851 0.002972920658 0.005866775755 -0.1894175708 0.7170384913
3942000000.0 -0.03055752814 -0.04084247335 0.003639280796 0.005270046182 0.003445345443 0.005610445049 -0.1264355481 0.73740669
3943000000.0 -0.03928298876 -0.05001493407 0.003987405449 0.004903911613 0.003916578367 0.005170313176 -0.06353464723 0.7519838493
3944000000.0 -0.04981580749 -0.05782143185 0.00446446985 0.0044624242 0.004342919681 0.004771201871 -0.000638037629 0.7607109648
3945000000.0 -0.06163267419 -0.06393557415 0.004833889194 0.004009180702 0.004727944266 0.004352938384 0.06186912954 0.7641108809
3946000000.0 -0.07447621226 -0.06825598972 0.005048601422 0.003652758896 0.005019998178 0.003914557397 0.1233252361 0.7619010524
3947000000.0 -0.08813904226 -0.07058621606 0.005352743901 0.003176450497 0.005285238381 0.003464465495 0.1840736717 0.7549352069
3948000000.0 -0.1023037732 -0.07091916829 0.005585974082 0.002691573463 0.005498463754 0.00296302163 0.2427909374 0.7431200886
3949000000.0 -0.1167544276 -0.06939580866 0.005688530859 0.002143426798 0.005757595412 0.002448140876 0.3001399338 0.726845744
3950000000.0 -0.1312364042 -0.06582632308 0.00590144936 0.001737050596 0.005869413726 0.002068145201 0.3544448316 0.7060519649
3951000000.0 -0.1455056667 -0.06022009859 0.005999186076 0.001239983132 0.006024988368 0.00144587527 0.4075221717 0.6814482305
3952000000.0 -0.159432292 -0.05285765315 0.006068041548 0.0007548765861 0.006128104869 0.001011220273 0.4571588039 0.6530594687
