!Created with skrf (http://scikit-rf.org).
# Hz S RI R 50.0 
!freq ReS11 ImS11 ReS21 ImS21 ReS12 ImS12 ReS22 ImS22
3800000000.0 0.02593193948 0.04959166917 1.467486709e-05 0.003007241059 -0.0001426649105 0.003022701247 -0.2907746434 0.6772974816
3801000000.0 0.02089861222 0.04752949545 0.0002154912509 0.002881659893 8.453677583e-05 0.002900060732 -0.2319201529 0.7067351694
3802000000.0 0.01558114681 0.04652122964 0.0004276089603 0.002818769543 0.0003178685147 0.002802958712 -0.17278561 0.7301405232
3803000000.0 0.01042261627 0.04658266516 0.0006377087557 0.002659305697 0.0004961050581 0.002786663361 -0.1127336025 0.7480499577
3804000000.0 0.004919629544 0.04789361136 0.0007827436202 0.00254396908 0.0007030955167 0.002679405967 -0.05264546722 0.7605563788
3805000000.0 -0.000328302267 0.05032641251 0.0009278298239 0.00245418027 0.0007928359555 0.002529964549 0.007302525453 0.7677805089
3806000000.0 -0.005032977089 0.05417797553 0.001136209816 0.002365428023 0.001027979422 0.002410869347 0.06709868461 0.770266582
3807000000.0 -0.009116323665 0.05913170508 0.001219202532 0.002203437267 0.001159565989 0.002301064553 0.1261495799 0.7676727229
3808000000.0 -0.01220918167 0.06515827359 0.001350887469 0.002145768376 0.001265221974 0.002177997259 0.1836939305 0.760708138
3809000000.0 -0.01429396961 0.07210475421 0.001465929206 0.001879623509 0.001393374638 0.002100577811 0.2397004366 0.7491396577
3810000000.0 -0.01517946739 0.07962902215 0.001613430912 0.001852720045 0.001512322226 0.001967925811 0.293797791 0.7337342228
3811000000.0 -0.01490321755 0.08755490498 0.001702247071 0.001757266233 0.001670139143 0.001869812724 0.346057564 0.714689782
3812000000.0 -0.01321356464 0.09593712694 0.001730078715 0.001589313848 0.001778313541 0.001761044841 0.3962801099 0.6921130944
3813000000.0 -0.010213295 0.1043946147 0.001815400086 0.001420300803 0.001824217732 0.001571128843 0.4446811676 0.6658475294
3814000000.0 -0.005899568554 0.112672125 0.001942413044 0.001321139163 0.001957000233 0.001406618278 0.4905095398 0.6360306134
3815000000.0 -0.0003798819962 0.1205948514 0.001933646272 0.001131033641 0.002030792413 0.001350591891 0.5334402323 0.6035875819
3816000000.0 0.006462847348 0.128137365 0.002058074577 0.001102304319 0.002052610042 0.001123792492 0.5744146705 0.5675274989
3817000000.0 0.01431017648 0.1350377874 0.002109243069 0.0009361052071 0.002110260539 0.001000369433 0.6121422648 0.5290818825
3818000000.0 0.02325000241 0.141431286 0.00212214468 0.0008140952559 0.00219942769 0.000923230953 0.6470679045 0.4876877361
3819000000.0 0.0333750397 0.1469760049 0.002238449873 0.0006137250457 0.00221183151 0.0007095650653 0.6791684628 0.4436404358
3820000000.0 0.04460639507 0.1515550244 0.002149020089 0.0005262531922 0.002282080939 0.000625630375 0.707339108 0.3977411726
3821000000.0 0.0567253232 0.1549671842 0.002253845334 0.0004047011607 0.002315352671 0.000448501698 0.7323010564 0.3494851296
3822000000.0 0.06935860217 0.156858524 0.002327259863 0.0002639216837 0.002351926174 0.0003366567835 0.7539691329 0.2993586217
3823000000.0 0.0827658549 0.1575757917 0.002282571513 0.0001479371276 0.002373095835 0.0001623686985 0.772121489 0.2474090847
3824000000.0 0.09644717723 0.1567587045 0.002314293524 -1.134539798e-05 0.002385043073 1.35801838e-05 0.7861366272 0.1940551741
3825000000.0 0.1104862392 0.1543273595 0.002319875639 -0.0001453588484 0.002432096051 -0.0001135773491 0.7960987687 0.1389976313
3826000000.0 0.1244407296 0.1503173334 0.002307899995 -0.0003027187777 0.002428121166 -0.0003017123672 0.8021591306 0.08301030647
3827000000.0 0.1379956603 0.1449585266 0.002326784655 -0.0005367251579 0.002382011153 -0.0005095369997 0.8041907549 0.02584751585
3828000000.0 0.1513784975 0.1379983608 0.002299349755 -0.0006508096703 0.002388668479 -0.0006438238779 0.8016035557 -0.0316648626
3829000000.0 0.1638280153 0.1297178118 0.002259861212 -0.000795274158 0.002321433043 -0.0007920301869 0.7945679426 -0.08990550452
3830000000.0 0.1759928763 0.1195830919 0.002275250852 -0.000987299718 0.002300982364 -0.0009633003501 0.7824622989 -0.1481127436
3831000000.0 0.186657533 0.1085466702 0.00217051548 -0.001167034614 0.00227499404 -0.001161952969 0.7659532428 -0.2056025408
3832000000.0 0.1966118962 0.09616343962 0.002119573765 -0.001363250776 0.002206682693 -0.001358663198 0.7438930869 -0.2620779352
3833000000.0 0.2050430626 0.08286710484 0.002023966284 -0.001552362461 0.002018220956 -0.001533211442 0.7171556354 -0.3176316684
3834000000.0 0.2120640427 0.06863484668 0.00198213011 -0.001678211498 0.001996212173 -0.001707510557 0.6850082278 -0.372267205
3835000000.0 0.2175264806 0.05394056147 0.001911853673 -0.001845779596 0.001959681278 -0.001823261962 0.647705853 -0.4246738497
3836000000.0 0.221806556 0.03846508613 0.001728131203 -0.002027049661 0.00177554274 -0.001971129328 0.6054506898 -0.4734129696
3837000000.0 0.2244158685 0.02296516442 0.001628636266 -0.002136589028 0.001640549628 -0.00214714394 0.5578827262 -0.520061674
3838000000.0 0.225644961 0.00729238058 0.001392043428 -0.002286287025 0.001494039316 -0.002290222328 0.5052791238 -0.5628865621
3839000000.0 0.2251321673 -0.008324053259 0.001315503498 -0.002538189758 0.00133198814 -0.002428859472 0.4480267763 -0.6009728621
3840000000.0 0.2233392745 -0.02403331834 0.001081216615 -0.002619330073 0.001127783558 -0.002625041408 0.3868767321 -0.63383168
3841000000.0 0.219963178 -0.03908505126 0.0009539565654 -0.002736622933 0.0009656501934 -0.002730993321 0.3213272393 -0.6614367867
3842000000.0 0.2151857018 -0.05380748792 0.0007631612825 -0.002834824845 0.0007423552452 -0.002838711487 0.2524178624 -0.6828051117
3843000000.0 0.2092311978 -0.06798745073 0.0004858828615 -0.002928026021 0.0005190887605 -0.002882528352 0.1799892932 -0.697890602
3844000000.0 0.201779604 -0.08137571866 0.0002061697742 -0.002956056269 0.0003041298187 -0.002934734803 0.105934307 -0.7054300064
3845000000.0 0.1931984723 -0.09385345774 -9.395856614e-05 -0.003026762512 4.80410381e-05 -0.002990633482 0.02994091064 -0.7054821888
3846000000.0 0.1832321584 -0.1052814602 -0.0003274511837 -0.003070599167 -0.00014765792 -0.003041171236 -0.0464046821 -0.6973747134
3847000000.0 0.1723854542 -0.1155688089 -0.0006077305297 -0.003104539588 -0.0005016167415 -0.00313237193 -0.1220932007 -0.6813467937
3848000000.0 0.1606846303 -0.1244453362 -0.0008584099123 -0.003043384757 -0.0007832715637 -0.003038843162 -0.1965917498 -0.6569015845
3849000000.0 0.1481218785 -0.1319291248 -0.001155110425 -0.002954897238 -0.001042838208 -0.003013651818 -0.2690597177 -0.6242482172
3850000000.0 0.1351736486 -0.1377399134 -0.001483365777 -0.002949837828 -0.001345895114 -0.002915759804 -0.3378120661 -0.5838509041
3851000000.0 0.1220294833 -0.1420641172 -0.001778449281 -0.002814493142 -0.001632740488 -0.00279824296 -0.402104795 -0.5357221863
3852000000.0 0.1087635681 -0.1448448905 -0.002052192809 -0.002637836849 -0.001928976621 -0.002665335545 -0.4608538449 -0.4808010907
3853000000.0 0.09547741711 -0.1461467932 -0.002257696819 -0.002477085683 -0.002060930477 -0.002518001478 -0.5133334398 -0.4198050451
3854000000.0 0.08229482919 -0.1459526907 -0.002504100092 -0.002257212531 -0.002318124985 -0.002342527034 -0.5586832166 -0.3537712145
3855000000.0 0.06961049139 -0.1441503386 -0.002651555464 -0.002036594087 -0.002594964812 -0.002075580647 -0.5966230631 -0.2831308465
3856000000.0 0.05761105567 -0.1407820659 -0.00284493994 -0.001822144492 -0.002741896082 -0.001924821874 -0.6263716817 -0.2088823241
3857000000.0 0.04650077224 -0.1360833899 -0.003057379276 -0.001475990866 -0.002946896944 -0.001680442365 -0.6478316784 -0.1327720333
3858000000.0 0.03624944389 -0.1301123768 -0.003158839419 -0.001204554341 -0.003117955755 -0.001414932078 -0.6607673168 -0.05447272224
3859000000.0 0.02733973041 -0.1231038366 -0.003310411237 -0.0009065552731 -0.003176387632 -0.001086942269 -0.6654118299 0.02358486553
3860000000.0 0.01980386674 -0.1150925349 -0.003293807153 -0.000631309289 -0.003315121867 -0.0008017360815 -0.6618933082 0.1005809045
3861000000.0 0.0135969203 -0.106490598 -0.003339866642 -0.0003300136595 -0.003372158157 -0.0005646403297 -0.6499132514 0.1764168284
3862000000.0 0.008881353773 -0.09754381791 -0.003398531815 -5.104132288e-05 -0.003386408323 -0.0002230335231 -0.6310308576 0.2491934631
3863000000.0 0.005594599061 -0.08814226762 -0.003289873712 0.0002721027995 -0.003445989918 1.766858804e-05 -0.6049625874 0.3189156974
3864000000.0 0.003958213609 -0.07871104288 -0.003342952346 0.0005967792822 -0.003378396388 0.0003793591168 -0.5726733804 0.3844911383
3865000000.0 0.00375114195 -0.06936559965 -0.003255222458 0.0008029933088 -0.003385861404 0.0006478280993 -0.5344336629 0.4456075099
3866000000.0 0.004978148732 -0.06032633641 -0.003160462482 0.001094936626 -0.003320513992 0.0008947296301 -0.4916292429 0.5017045451
3867000000.0 0.007574650925 -0.05173257981 -0.003026616294 0.00140701863 -0.003163665766 0.001205836656 -0.4441638887 0.5526026616
3868000000.0 0.01162827015 -0.04359871315 -0.002954101656 0.001646552817 -0.003044825979 0.0014952044 -0.3928822279 0.5981164185
3869000000.0 0.01701190323 -0.03633668491 -0.002711316803 0.001927249017 -0.002882244997 0.001765759895 -0.3384440541 0.6380620179
3870000000.0 0.02379497886 -0.02999348596 -0.002542879432 0.002108079847 -0.002733407542 0.001986269839 -0.2825444639 0.6720143367
3871000000.0 0.03164640442 -0.02491649775 -0.002376159886 0.002321191598 -0.002576995408 0.002200179268 -0.2239217013 0.7006268162
3872000000.0 0.04044060409 -0.02117207244 -0.002169177635 0.002469412982 -0.002345647896 0.00237984932 -0.1640875041 0.723682485
3873000000.0 0.05020990595 -0.01900698029 -0.001997261541 0.002634077333 -0.002195936628 0.002612326527 -0.1037616208 0.7409673427
3874000000.0 0.06051057577 -0.01860309274 -0.001782487147 0.002801593859 -0.001917341258 0.002750353888 -0.04326707497 0.7529783092
3875000000.0 0.07104092836 -0.01997913262 -0.00146194722 0.002856052481 -0.001719955122 0.002919629449 0.01810235344 0.7598593309
3876000000.0 0.08172205836 -0.02322658166 -0.001286788611 0.002997740405 -0.001415822771 0.003017513314 0.07808440924 0.7615714876
3877000000.0 0.09213217348 -0.02833802747 -0.0009983981727 0.003117464017 -0.001180247753 0.003131380305 0.1372920573 0.75852455
3878000000.0 0.1019528881 -0.03535166047 -0.0007790073287 0.003161161207 -0.0009033076349 0.00318175531 0.1955049187 0.7507993048
3879000000.0 0.1110044494 -0.04413102552 -0.0005521398271 0.003204214852 -0.0006485041813 0.003277314361 0.2519324124 0.7384695086
3880000000.0 0.1189400405 -0.05454896074 -0.0002206605859 0.003274754854 -0.000441570417 0.003287562868 0.3070314527 0.7220699691
3881000000.0 0.1254569739 -0.06647282172 4.332524441e-06 0.003188553732 -0.0001898881019 0.003384081647 0.3602029085 0.7014722801
3882000000.0 0.1304553747 -0.07967186798 0.0002451524197 0.003223208943 9.476004925e-05 0.003340728581 0.4113182127 0.6771796721
3883000000.0 0.1337424517 -0.09377402879 0.0004585164716 0.00321673369 0.0003635021858 0.003281226149 0.4598163664 0.6495470893
3884000000.0 0.1352685392 -0.108726622 0.0007287935587 0.003178909188 0.000681296282 0.003257315606 0.5056571364 0.6182502831
3885000000.0 0.1348028481 -0.1241069036 0.0009992357809 0.003092562314 0.0008926883456 0.003235453507 0.5489302278 0.583667149
3886000000.0 0.1324924827 -0.1398078818 0.001182620996 0.003039376577 0.001127051306 0.003122057533 0.5892586708 0.5462837985
3887000000.0 0.1281011552 -0.1554440406 0.001504728571 0.002907983493 0.001456869766 0.003058358096 0.6267463565 0.5059292889
3888000000.0 0.1218698695 -0.1707957977 0.00172442745 0.002818430308 0.001612077001 0.002952340059 0.6610600948 0.4630312351
3889000000.0 0.1136721745 -0.1858169295 0.001874457346 0.002662496176 0.001848981832 0.002820580965 0.6922004819 0.4175304847
3890000000.0 0.1037291065 -0.1999555399 0.002051150193 0.002552320249 0.002006105613 0.002603651024 0.7196152806 0.3696927172
3891000000.0 0.09200720489 -0.2133572273 0.002318469808 0.002372172661 0.002307296265 0.00255488418 0.7438659668 0.3197051036
3892000000.0 0.07862344384 -0.225569347 0.002464533318 0.002282063477 0.002480515977 0.002251077676 0.7641205788 0.2679987586
3893000000.0 0.0638577342 -0.2366260302 0.002622046741 0.002080769278 0.002692680806 0.002163494006 0.78034693 0.215020816
3894000000.0 0.04754896089 -0.2460954023 0.002841351088 0.001844918705 0.002830342157 0.001940251095 0.7927070856 0.1601233915
3895000000.0 0.03020989522 -0.2539876115 0.002993712435 0.001579687465 0.002990877023 0.001692581107 0.8009945154 0.103773953
3896000000.0 0.0117462799 -0.2601511911 0.003076725407 0.001407001866 0.003138618544 0.001596312155 0.8047050238 0.0473477712
3897000000.0 -0.007439165842 -0.2642016063 0.00326404511 0.001225249842 0.003332861932 0.001298093703 0.8042821288 -0.01051711138
3898000000.0 -0.02706354298 -0.266452124 0.003344599158 0.0009721549577 0.00344838202 0.001055947505 0.7992439866 -0.06901129034
3899000000.0 -0.04706459492 -0.266613645 0.003511622315 0.0006235803594 0.003463853383 0.0007888776017 0.7893677354 -0.1264329636
3900000000.0 -0.06703294814 -0.2646196007 0.003541116137 0.0004044765374 0.003648742568 0.0004972069291 0.7745975256 -0.1840188238
3901000000.0 -0.08665072918 -0.2608143156 0.003606450977 0.0001969653676 0.00368768652 0.0002007921285 0.7550301552 -0.2412310697
3902000000.0 -0.1058955267 -0.2550582204 0.00371067063 -0.0001101377638 0.003810141934 -7.890559937e-05 0.7304096222 -0.2972422037
3903000000.0 -0.1245847344 -0.2474444372 0.00368921482 -0.0005219145096 0.003783971537 -0.0003841319121 0.7008804679 -0.3520965486
3904000000.0 -0.1426081955 -0.2381186196 0.003745585913 -0.0007556775818 0.00380441267 -0.0006997482269 0.6658297181 -0.4054195256
3905000000.0 -0.1597111523 -0.2271002505 0.003692786675 -0.001118930639 0.003776779165 -0.001024497091 0.6259782314 -0.4559751998
3906000000.0 -0.1758884043 -0.2143655753 0.003591911867 -0.001427792478 0.003711639438 -0.001437095576 0.581068933 -0.5033255559
3907000000.0 -0.1907666475 -0.2000751267 0.003544279374 -0.001696557621 0.003601327538 -0.001666562515 0.5315006971 -0.5472669432
3908000000.0 -0.2042057663 -0.1841716641 0.003456971142 -0.002039343817 0.003488261485 -0.001974940998 0.4772253931 -0.5869374646
3909000000.0 -0.2159124911 -0.1667999646 0.003287869506 -0.002413288457 0.003408194985 -0.002349129878 0.4185480177 -0.6223660525
3910000000.0 -0.2257461995 -0.1485238108 0.003108187579 -0.002701899968 0.003173782257 -0.002635808429 0.3552734852 -0.6526634559
3911000000.0 -0.2336119264 -0.1292804867 0.002896743128 -0.003021799959 0.003007316729 -0.002987950575 0.288795948 -0.6770046889
3912000000.0 -0.2394724637 -0.1095364601 0.002596876118 -0.003286841093 0.002767788479 -0.003304033307 0.219201386 -0.695134955
3913000000.0 -0.2433057427 -0.08909010337 0.002374837408 -0.003651946085 0.002498940332 -0.003505563596 0.1470806301 -0.7065389944
3914000000.0 -0.2448962182 -0.06874236909 0.002083355095 -0.003886081045 0.002235542983 -0.003806043416 0.07298219204 -0.7105288625
3915000000.0 -0.2441877425 -0.04813115409 0.001794051146 -0.004107023589 0.001989374403 -0.004055412021 -0.002665916923 -0.7072116196
3916000000.0 -0.2410972565 -0.02797539051 0.001406822586 -0.004345168825 0.001504775137 -0.004255003296 -0.07816850394 -0.6959474399
3917000000.0 -0.2358698398 -0.008670543193 0.001025583246 -0.004380170256 0.001232294249 -0.004411884584 -0.1533007026 -0.6764294757
3918000000.0 -0.2285888642 0.009724502459 0.0006419104757 -0.00459294254 0.0007788596558 -0.004558105487 -0.2261883914 -0.6490791702
3919000000.0 -0.2194934636 0.02708432817 0.0002118275152 -0.004687047563 0.0004230396589 -0.004681747872 -0.2965361178 -0.6136026665
3920000000.0 -0.2085167915 0.0429346801 -0.0002487581223 -0.0047748629 -2.002262227e-05 -0.004718316719 -0.3631533086 -0.5707321932
3921000000.0 -0.1960866898 0.05710421268 -0.0007541329251 -0.004771290813 -0.0005226035137 -0.004738490097 -0.4251869619 -0.5202039192
3922000000.0 -0.1821330786 0.06936199964 -0.001254664152 -0.004662869964 -0.0009524243651 -0.004761635792 -0.4816126227 -0.4634621501
3923000000.0 -0.1672522277 0.07968766015 -0.001644750591 -0.004607440904 -0.001411287929 -0.004675994162 -0.5317106247 -0.4004975826
3924000000.0 -0.1515256763 0.08801869101 -0.00215931097 -0.004483309109 -0.001914055436 -0.004578327294 -0.5745995641 -0.3328701118
3925000000.0 -0.1353142411 0.09420866199 -0.002616378944 -0.004296454135 -0.002381483559 -0.0043705469 -0.6098479629 -0.260265036
3926000000.0 -0.1187834069 0.09820106855 -0.003029988846 -0.003928924911 -0.002863385715 -0.004155812319 -0.6370420456 -0.1850182548
3927000000.0 -0.1021030694 0.09997594971 -0.003428393742 -0.003732124344 -0.003141436027 -0.003911771812 -0.655901134 -0.107719004
3928000000.0 -0.08566822112 0.09953158914 -0.003786337562 -0.003394137602 -0.003537805285 -0.003567588283 -0.666046381 -0.02877784497
3929000000.0 -0.07002171129 0.09686558014 -0.004135589115 -0.003004161408 -0.003953862935 -0.003220614279 -0.6677624583 0.04973527209
3930000000.0 -0.05509093031 0.09225672797 -0.004388950765 -0.00251501915 -0.004199715797 -0.002877645195 -0.6612642407 0.1274023123
3931000000.0 -0.04146064073 0.0857494359 -0.004630768206 -0.002111697802 -0.004499019124 -0.002390213776 -0.6468891501 0.2032185402
3932000000.0 -0.02879595757 0.0775623717 -0.004786440637 -0.001685710507 -0.004697243217 -0.001961439615 -0.624709487 0.2761376403
3933000000.0 -0.01789827831 0.0676612101 -0.004912381526 -0.001204254571 -0.004900083411 -0.00142393494 -0.5956529975 0.3455187108
3934000000.0 -0.008777993731 0.05644841925 -0.004915060941 -0.0007405420183 -0.004954955075 -0.001065379707 -0.5599974394 0.410652105
3935000000.0 -0.001635388006 0.0440958377 -0.005039378069 -0.0002724879305 -0.00503236847 -0.0005025239661 -0.5187321305 0.4713449122
3936000000.0 0.003479588777 0.03104351923 -0.004969849251 0.0002436997456 -0.005006070714 1.276063267e-05 -0.4723255038 0.5268217611
3937000000.0 0.006465284154 0.01748380532 -0.004905703478 0.0006627004477 -0.0049500647 0.0004680706188 -0.4213883579 0.5765893375
3938000000.0 0.007256323006 0.003571864903 -0.004813497886 0.001088800724 -0.004854891915 0.0009135471773 -0.3673573136 0.620446106
3939000000.0 0.005749493837 -0.01002256124 -0.004713479429 0.001497809775 -0.004844939336 0.001324183075 -0.3100369871 0.6585736899
3940000000.0 0.002075583674 -0.02344273587 -0.004487751517 0.00194766291 -0.004676302895 0.00169217831 -0.2503471375 0.6908638305
3941000000.0 -0.003450882854 -0.03612158663 -0.004214224871 0.002319757594 -0.004457570612 0.002140391385 -0.1893069446 0.7169598643
3942000000.0 -0.01096186321 -0.04794914772 -0.004035653546 0.002636944875 -0.004213029984 0.002518252237 -0.126884371 0.7373021557
3943000000.0 -0.02039751597 -0.05880520208 -0.00380778918 0.003005225444 -0.003971456084 0.002893054159 -0.06377983838 0.7518430668
3944000000.0 -0.03173798695 -0.06828694953 -0.003466421971 0.003313951893 -0.003622752381 0.003188168164 -0.001158382976 0.7604468275
3945000000.0 -0.04473165423 -0.07608808333 -0.003144605085 0.003590992652 -0.003344108351 0.00353275775 0.06137024239 0.7638320172
3946000000.0 -0.05905904248 -0.08183918886 -0.002841037698 0.003754515899 -0.00305784028 0.00376099511 0.1227931753 0.7618467759
3947000000.0 -0.07443609089 -0.0854372524 -0.002473306144 0.00398661755 -0.002612178447 0.003981474787 0.1831031442 0.7548565364
3948000000.0 -0.09045822173 -0.086786459 -0.002165089129 0.004174342845 -0.002316239523 0.004183131736 0.2422208786 0.7432036982
3949000000.0 -0.1069486216 -0.08601139827 -0.001803901629 0.004333833233 -0.001920282142 0.004411673173 0.2991355062 0.7268954754
3950000000.0 -0.1235912889 -0.08269393541 -0.00147517235 0.004362569191 -0.001533211442 0.004418418743 0.3545299768 0.7061145024
3951000000.0 -0.140089497 -0.07724870097 -0.001049887389 0.004488855135 -0.00121361902 0.004593041725 0.4067826569 0.6816204183
