!Created with skrf (http://scikit-rf.org).
# Hz S RI R 50.0 
!freq ReS11 ImS11 ReS21 ImS21 ReS12 ImS12 ReS22 ImS22
3800000000.0 0.04196973518 0.0707291774 0.0004668859474 0.002531291917 0.0003668021818 0.002526019467 -0.2887674272 0.6770293952
3801000000.0 0.03997026384 0.06779305741 0.0006773583009 0.002499005059 0.0004474709567 0.002512916224 -0.2304477543 0.7060594339
3802000000.0 0.03748682141 0.0656983208 0.0008293631254 0.002389971865 0.0006954239216 0.002427736064 -0.1709578335 0.7295400073
3803000000.0 0.03485878929 0.06438953157 0.0009753426421 0.002257150598 0.0008475714712 0.002392841969 -0.1105688885 0.7472435843
3804000000.0 0.03219239414 0.06392060616 0.001135084545 0.002252011793 0.001064735348 0.002323510824 -0.05056201667 0.759705665
3805000000.0 0.02963879332 0.06422748722 0.001335251844 0.002114560921 0.001198118902 0.0021720808 0.009432482533 0.7669728714
3806000000.0 0.02721753903 0.0654635817 0.001513792085 0.001939453185 0.001336999005 0.002012694487 0.06844178587 0.7690712411
3807000000.0 0.02517908812 0.067311674 0.001573738991 0.001812428585 0.001524331397 0.001951468061 0.1272653341 0.7664043514
3808000000.0 0.02367051691 0.06997075237 0.001687492826 0.001718585263 0.001652212697 0.001871207263 0.1843564957 0.7595166094
3809000000.0 0.02275826409 0.07323588971 0.001836699317 0.001623632619 0.00175954646 0.001749975723 0.2403884679 0.7479466559
3810000000.0 0.02236000076 0.07710821589 0.001986076357 0.001335304347 0.00188850367 0.001571903471 0.2942957282 0.7324198747
3811000000.0 0.02279302664 0.08141810821 0.002003699308 0.001239071251 0.002012714744 0.001420625835 0.3464726806 0.7133236833
3812000000.0 0.02426772937 0.08615656378 0.002115166979 0.001166339731 0.00212090672 0.001247780281 0.3968327343 0.6906187353
3813000000.0 0.02651119791 0.09103496439 0.002157757059 0.001016770606 0.002231064951 0.001128783799 0.4448426664 0.664336783
3814000000.0 0.02969720215 0.0958172928 0.002186143771 0.0009399145492 0.002256922657 0.0009544019704 0.4905738235 0.6347588358
3815000000.0 0.03386196122 0.1004557074 0.002284099348 0.0007670900668 0.002408720553 0.0008711332339 0.533911407 0.6015892085
3816000000.0 0.03884122893 0.1047986415 0.002362545813 0.0005307213869 0.002354736906 0.0006902638124 0.5745924115 0.5659669024
3817000000.0 0.04460688308 0.1088067011 0.002352064708 0.0003295194183 0.002443996491 0.0004188198363 0.6120194793 0.5275455401
3818000000.0 0.05106347799 0.1123018182 0.00246643601 0.0002863256668 0.002557945205 0.0003229428839 0.6469291449 0.4861827845
3819000000.0 0.0583005175 0.1152926258 0.002453860594 4.784966222e-05 0.002538073342 8.18578701e-05 0.6783165932 0.4425450956
3820000000.0 0.06633251905 0.1178554083 0.002414141549 -0.0001900005882 0.002507303609 -6.853998639e-05 0.7068508863 0.3962900641
3821000000.0 0.07517478615 0.1195239665 0.002407419495 -0.0003230943403 0.002557806903 -0.0002413589536 0.7319288254 0.3480109225
3822000000.0 0.08450522274 0.1200162064 0.002387649613 -0.0005637586582 0.002543326933 -0.0004509435093 0.7533977032 0.2978586139
3823000000.0 0.09384581447 0.1199221246 0.002435591538 -0.0007081275107 0.002485054312 -0.0006727042492 0.7710070014 0.2459516875
3824000000.0 0.1040366814 0.1188129962 0.002391839866 -0.0008699435275 0.002465482103 -0.0008204761543 0.7852960229 0.1925278125
3825000000.0 0.1141476557 0.1166442105 0.002331588184 -0.001074087573 0.002388274763 -0.0009606685489 0.7952444553 0.1377787154
3826000000.0 0.1244177595 0.1133020291 0.002294587437 -0.001245763618 0.00233111158 -0.001203191583 0.8011369705 0.08155128798
3827000000.0 0.1345879436 0.1090720041 0.00225759903 -0.001457186649 0.002329109469 -0.001402924885 0.8029280901 0.02471096712
3828000000.0 0.1446599066 0.1037589714 0.002047410468 -0.001634217915 0.002197218593 -0.001566483523 0.8004029989 -0.03273469856
3829000000.0 0.1545674652 0.09730078856 0.001943541924 -0.001777375001 0.002067780821 -0.001820963691 0.7930199504 -0.09033247439
3830000000.0 0.1640918106 0.08986011276 0.001920921612 -0.001932898071 0.001982507063 -0.001994127641 0.7809883356 -0.148725975
3831000000.0 0.1733408272 0.0812085592 0.001740590087 -0.002178701106 0.0018000087 -0.002167339437 0.7642172575 -0.2060140526
3832000000.0 0.1820266694 0.07103437478 0.001518694102 -0.002314691432 0.00167239143 -0.002308287425 0.7423436642 -0.2627584071
3833000000.0 0.1894067824 0.05974109108 0.001496978337 -0.002486561192 0.001522306935 -0.002416800708 0.7152612805 -0.3186015833
3834000000.0 0.1955552101 0.04773265549 0.001233478659 -0.002640090184 0.001313054236 -0.002631525742 0.6831429601 -0.3727150236
3835000000.0 0.200594753 0.03517857496 0.0009358421084 -0.002775582718 0.001162222121 -0.002796561923 0.6458814144 -0.4242298732
3836000000.0 0.2044635713 0.0220308462 0.0008205967606 -0.002897638362 0.0008572571678 -0.002779792063 0.6035328507 -0.4735825964
3837000000.0 0.2069274783 0.008451686664 0.0006052342942 -0.003037839197 0.0006481025484 -0.003028043313 0.5561280251 -0.5197012039
3838000000.0 0.208351016 -0.005493719396 0.0003036319395 -0.003089761361 0.0003807453904 -0.003116016276 0.5036457181 -0.5621572612
3839000000.0 0.2083545625 -0.01964423465 2.347140799e-05 -0.00309740426 8.393371536e-05 -0.003104296979 0.4465041757 -0.6001475132
3840000000.0 0.2068512589 -0.03376756127 -0.0002743423393 -0.003155508777 -0.0001904637174 -0.003179010004 0.3848282397 -0.6333299439
3841000000.0 0.2039069533 -0.04755454564 -0.0005498111714 -0.003195093013 -0.000443682773 -0.003131567733 0.3197047114 -0.6603856051
3842000000.0 0.1995682716 -0.06108462545 -0.0008584506577 -0.003148277523 -0.0007136962959 -0.003129193094 0.2507568598 -0.6816703164
3843000000.0 0.1940217912 -0.07444208009 -0.001129491138 -0.003092563013 -0.0009906914784 -0.003139944747 0.1785941124 -0.6965143785
3844000000.0 0.1869333535 -0.08671784229 -0.001464349218 -0.003006953513 -0.00131030078 -0.002978265053 0.1043691263 -0.7039876226
3845000000.0 0.1787590683 -0.09803550183 -0.001685836236 -0.002946437569 -0.00163503876 -0.002972522983 0.02900345251 -0.7035968831
3846000000.0 0.1694659144 -0.1085120595 -0.002051249146 -0.002828818979 -0.001874306006 -0.002767101862 -0.0476786308 -0.6956433779
3847000000.0 0.1592468023 -0.1178156268 -0.002347536851 -0.002536870772 -0.002153440146 -0.002680278616 -0.1232444644 -0.6792582865
3848000000.0 0.1482010037 -0.125770148 -0.002607851988 -0.002413303591 -0.002468159422 -0.002460241783 -0.1976700723 -0.654953329
3849000000.0 0.1364861131 -0.1323589132 -0.002803897485 -0.002056464087 -0.002669879002 -0.002193020657 -0.2697318196 -0.6220969692
3850000000.0 0.1243232489 -0.1374690103 -0.003001362085 -0.001854363829 -0.00291425176 -0.001975932391 -0.3381809294 -0.5816548143
3851000000.0 0.1120098904 -0.1409380888 -0.003230750328 -0.001532715978 -0.003117914312 -0.001640281407 -0.4018141031 -0.5337469866
3852000000.0 0.09975197911 -0.1428788696 -0.003391786246 -0.001218476682 -0.003236419288 -0.001331993961 -0.460723877 -0.478890656
3853000000.0 0.08791856468 -0.1436217953 -0.003450581571 -0.0008484072168 -0.003322253469 -0.001098466339 -0.5130988955 -0.4177378028
3854000000.0 0.07646781951 -0.1429449096 -0.00352627947 -0.0004990963498 -0.003421678208 -0.000745283789 -0.5580243468 -0.3516379545
3855000000.0 0.0656844601 -0.1411635991 -0.003571404144 -0.0001640852424 -0.003465744667 -0.0004155400093 -0.5958444476 -0.2807288982
3856000000.0 0.05528749898 -0.1384815591 -0.003475648584 0.0001415178267 -0.003463746281 -4.271560829e-05 -0.6254143715 -0.2069437454
3857000000.0 0.04551475495 -0.1347807833 -0.003508862574 0.0004576674546 -0.003467471339 0.0002805266122 -0.6468489766 -0.1308132642
3858000000.0 0.03638294712 -0.1299965478 -0.003411769634 0.0008005112177 -0.00338986353 0.0005621254677 -0.6596075296 -0.05297371658
3859000000.0 0.02801402472 -0.1242103255 -0.003228420392 0.001084862859 -0.00332675525 0.0008991124341 -0.6638255715 0.02511346609
3860000000.0 0.02094472572 -0.1173865789 -0.00312867621 0.001357353409 -0.003179338994 0.001170336152 -0.6599872708 0.1022899651
3861000000.0 0.01496720407 -0.1100027029 -0.002976725111 0.001601243392 -0.003021767363 0.001450447133 -0.6481772661 0.1775661632
3862000000.0 0.01043101028 -0.1017905203 -0.002828780329 0.001840041368 -0.002915957244 0.001693169703 -0.6290972233 0.2501446314
3863000000.0 0.007461372297 -0.09338850897 -0.002606034279 0.002095732372 -0.002805324737 0.001903898548 -0.6029810905 0.3195770645
3864000000.0 0.006112412084 -0.08500935897 -0.002389204921 0.002326461254 -0.002629938768 0.002150675748 -0.5706142187 0.384762141
3865000000.0 0.005935178138 -0.07700790412 -0.002202014672 0.002453710884 -0.002359984908 0.002313719131 -0.5325948 0.4457047073
3866000000.0 0.007210670039 -0.06913002715 -0.001882790937 0.00265102298 -0.002146498766 0.002534199972 -0.489710778 0.5016617942
3867000000.0 0.009891533293 -0.06203068558 -0.001666439115 0.002760129049 -0.001973291626 0.002666699002 -0.4422718287 0.552446863
3868000000.0 0.01366802398 -0.05561099382 -0.001443996909 0.002842488699 -0.001771795796 0.002778583672 -0.3915924132 0.5976507732
3869000000.0 0.01842847653 -0.05012724793 -0.00120098819 0.002941742772 -0.001450812211 0.002893289551 -0.3370218873 0.6374246674
3870000000.0 0.02416664734 -0.04572365163 -0.001022937708 0.003038590308 -0.0011442838 0.002989238361 -0.280110985 0.6715988467
3871000000.0 0.03063689359 -0.04265945598 -0.0007536669727 0.003087868216 -0.0009222964873 0.003120498499 -0.2218786925 0.7000268208
3872000000.0 0.03745945916 -0.04080145483 -0.0005170149961 0.003130418481 -0.0006359323743 0.003238097765 -0.162268579 0.7227670284
3873000000.0 0.04448945075 -0.03997356363 -0.0003247307322 0.003077842295 -0.0004979054793 0.003206708701 -0.1024272144 0.7399351703
3874000000.0 0.05195879936 -0.04036537998 3.819468111e-05 0.003115828149 -0.0001551908936 0.003184848232 -0.04208937287 0.7518247411
3875000000.0 0.05958645046 -0.04213886008 0.0003391721402 0.003136793151 9.23030384e-05 0.003215331351 0.01919010468 0.7584818082
3876000000.0 0.06720317155 -0.04526030107 0.0004975890624 0.003091752063 0.0003729768214 0.003163492074 0.07911857963 0.7601636583
3877000000.0 0.07452496141 -0.04992869265 0.0007675499073 0.002974007744 0.0006750871544 0.003139731474 0.1385172457 0.7569365289
3878000000.0 0.08118113875 -0.05596462762 0.0009619650082 0.002926477697 0.000866551185 0.003097132081 0.1961384118 0.7492733113
3879000000.0 0.08720625937 -0.06313130948 0.001304272679 0.002824166324 0.001041866606 0.002968518762 0.2526870668 0.7371055307
3880000000.0 0.09234462678 -0.07142006136 0.001458555926 0.002678082325 0.001376936212 0.002836785745 0.3076142073 0.7205576142
3881000000.0 0.09649524838 -0.08083437134 0.001663468196 0.002601581858 0.001654281397 0.002643895335 0.3601782322 0.7001637692
3882000000.0 0.09950580448 -0.09101751109 0.001843076316 0.00244399067 0.001775190467 0.002547566546 0.4113638401 0.6758090129
3883000000.0 0.1011423692 -0.1019227015 0.002090944676 0.002310592914 0.002008285839 0.002391772578 0.459741801 0.6479716432
3884000000.0 0.1016933769 -0.1132983547 0.002197817434 0.00212193164 0.002125227125 0.002223878633 0.5059890747 0.6165699286
3885000000.0 0.1011095718 -0.1251534253 0.00236885203 0.001879390678 0.002312066732 0.002207150916 0.5490757823 0.5819095775
3886000000.0 0.09901218116 -0.137410391 0.002489035949 0.001748160459 0.002451621229 0.00186539616 0.589202404 0.544516048
3887000000.0 0.09548942745 -0.1499739392 0.002538052388 0.001557976706 0.002582437359 0.001717269071 0.6264197826 0.5044689506
3888000000.0 0.09037994593 -0.1626353295 0.002708898857 0.001360068447 0.002764665522 0.00147067511 0.6605897546 0.4615376808
3889000000.0 0.0837200284 -0.175165169 0.002825644566 0.001171667594 0.002916086465 0.001289170119 0.6913093925 0.4159703133
3890000000.0 0.07548908889 -0.1873979917 0.002867921721 0.0009301157552 0.002932884498 0.001002987148 0.7194014788 0.3679791681
3891000000.0 0.06537087262 -0.1991489224 0.002961112419 0.0006740280078 0.002959671663 0.0008406625129 0.7431938648 0.3181208423
3892000000.0 0.05342458189 -0.2101785669 0.002961140592 0.0004501008079 0.003077837406 0.0006080003805 0.7633705139 0.2664569476
3893000000.0 0.03973032162 -0.2198322961 0.003041112795 0.0002649071976 0.003151644021 0.0003156883467 0.7795206904 0.2129803003
3894000000.0 0.02505794354 -0.2279842691 0.003081049072 7.925928912e-06 0.003097962355 0.0001437605242 0.7916995287 0.1584829705
3895000000.0 0.009340437129 -0.2346931662 0.002949608723 -0.000215940192 0.003154394217 -0.0001344053453 0.7998039126 0.1025135634
3896000000.0 -0.007525564171 -0.239865682 0.003043913515 -0.0003898691211 0.003128181444 -0.000409634813 0.8034712672 0.0455068954
3897000000.0 -0.02521368861 -0.2432118343 0.003024774371 -0.000611897558 0.003127913689 -0.0006357244565 0.8029127717 -0.01183488752
3898000000.0 -0.04304963723 -0.2446878185 0.002919956576 -0.0008741526399 0.003056221642 -0.0008550353814 0.7976353765 -0.06954068079
3899000000.0 -0.06140197068 -0.244351354 0.002921995241 -0.001078986796 0.003046834143 -0.001023289282 0.787799716 -0.1277361039
3900000000.0 -0.07977662981 -0.2422110072 0.002920212457 -0.001267593354 0.00295835454 -0.001278511249 0.7729961276 -0.1851143797
3901000000.0 -0.09823307395 -0.2383760846 0.002855654573 -0.001571614412 0.002893791068 -0.001494606491 0.7532369494 -0.2420912778
3902000000.0 -0.1163380444 -0.2323574998 0.002735728864 -0.001849698718 0.002808593679 -0.001740410575 0.7286103368 -0.2984371202
3903000000.0 -0.1341505945 -0.2244468838 0.002621540334 -0.001986306161 0.002702411963 -0.001952414867 0.6987480521 -0.3531944034
3904000000.0 -0.150927633 -0.2144961641 0.00254248851 -0.002273532795 0.002594169462 -0.002240743721 0.6640980244 -0.4056149206
3905000000.0 -0.1666913778 -0.2029031904 0.002356591169 -0.002522196854 0.002490570303 -0.002506412333 0.6240540147 -0.455856132
3906000000.0 -0.181191653 -0.1895637625 0.002175406087 -0.002686230931 0.002232598374 -0.002724436577 0.5793705583 -0.5029213383
3907000000.0 -0.1940813214 -0.1749168646 0.001902848016 -0.002901814412 0.002054280136 -0.002919648541 0.5296000242 -0.5468965692
3908000000.0 -0.2056497484 -0.1588724723 0.001648271573 -0.00313985208 0.001802144689 -0.003046060912 0.4751152396 -0.5867070676
3909000000.0 -0.2152911425 -0.1419937484 0.001405144809 -0.003277264535 0.001572765294 -0.003287266241 0.4166531563 -0.6216166866
3910000000.0 -0.2230720669 -0.1240090758 0.001128730131 -0.003503796412 0.001251996844 -0.003455598839 0.3539227843 -0.6515792571
3911000000.0 -0.2290137857 -0.1057154166 0.0009143567295 -0.003530319547 0.0009215943865 -0.003578153206 0.287552774 -0.6757470597
3912000000.0 -0.2330881655 -0.08696858468 0.000571630022 -0.003726781346 0.0007354635745 -0.003654209431 0.2172745913 -0.694009812
3913000000.0 -0.2352193445 -0.06781909207 0.0002369873109 -0.003659552895 0.0003526308574 -0.003670073813 0.1451832503 -0.7051300171
3914000000.0 -0.2352555543 -0.04892255568 -2.733253677e-05 -0.003882622346 0.0001730764197 -0.003835027572 0.07089733332 -0.7090776935
3915000000.0 -0.2332895845 -0.02988205239 -0.000374364754 -0.003907759674 -0.0001899375347 -0.003887853818 -0.003814895172 -0.7055812798
3916000000.0 -0.229321152 -0.01168860111 -0.0006658795173 -0.003848173656 -0.0006457449053 -0.003884321777 -0.07901667058 -0.6938408762
3917000000.0 -0.2235084772 0.005829776108 -0.00110678724 -0.00381402974 -0.0009963997873 -0.00384102785 -0.1536056995 -0.6744348188
3918000000.0 -0.2158484608 0.02218734208 -0.001525354455 -0.003811514238 -0.00136643264 -0.003780920524 -0.226802662 -0.646878787
3919000000.0 -0.2067877501 0.03753183777 -0.001827101689 -0.003632286331 -0.001687289565 -0.003701820504 -0.2968603075 -0.6115366556
3920000000.0 -0.1961634308 0.05178467903 -0.002188131213 -0.00348656089 -0.002037792932 -0.003581990022 -0.3631331623 -0.5685867667
3921000000.0 -0.1841259599 0.06429711125 -0.002589018783 -0.003305468941 -0.002404373605 -0.003421631409 -0.4248767197 -0.5185928389
3922000000.0 -0.1708625704 0.07519621458 -0.002875111531 -0.003033819143 -0.002719513373 -0.00312904804 -0.4812711179 -0.4612082566
3923000000.0 -0.1567781121 0.08436273437 -0.003150678938 -0.002727522748 -0.003089998616 -0.002836381551 -0.5310450792 -0.3984050036
3924000000.0 -0.1421406269 0.09146272084 -0.003397978609 -0.002406982705 -0.003283299971 -0.00261056819 -0.5738775134 -0.3305251962
3925000000.0 -0.1270059645 0.09688120251 -0.003615702037 -0.002111599315 -0.00359031884 -0.002281289548 -0.6088918447 -0.2585668245
3926000000.0 -0.1114586145 0.1002659036 -0.003904382233 -0.001728482312 -0.003652043408 -0.002017873107 -0.6358198524 -0.1836352766
3927000000.0 -0.09577342868 0.1016978489 -0.004022676498 -0.001393500715 -0.003941012081 -0.001580835669 -0.6544892788 -0.1063348872
3928000000.0 -0.08013677597 0.1009133355 -0.004063973669 -0.001028234139 -0.004050447606 -0.001222693012 -0.6644735932 -0.0275373426
3929000000.0 -0.0653161332 0.09784598284 -0.004140073899 -0.0006026908522 -0.004169995431 -0.0008854710031 -0.6661827564 0.05067883689
3930000000.0 -0.05141489208 0.0929231191 -0.004224453121 -0.0003250300651 -0.0042874543 -0.0005770706339 -0.6595367193 0.1283694799
3931000000.0 -0.03873616084 0.0863599186 -0.004252715502 0.0001134654449 -0.004260385875 -0.0001793250558 -0.6447634697 0.2042034872
3932000000.0 -0.02731672488 0.07787549443 -0.004184979014 0.0004739822762 -0.004225926008 0.000289989257 -0.6228460073 0.2765865141
3933000000.0 -0.01771825179 0.06816586051 -0.004178702366 0.0008706435328 -0.004183339421 0.0006489924854 -0.5936923623 0.3459372488
3934000000.0 -0.009898441844 0.05732506478 -0.004067999311 0.001326561789 -0.004133890849 0.0010136239 -0.5580877662 0.4110565778
3935000000.0 -0.004057293292 0.04563271819 -0.003899646457 0.001578504103 -0.004086759407 0.001397882006 -0.5169605017 0.4713124752
3936000000.0 -8.184987382e-05 0.03332905645 -0.003755142679 0.001870991313 -0.003891188418 0.00168412854 -0.4704223871 0.5264530736
3937000000.0 0.001755389385 0.02091008879 -0.003557426156 0.002193115186 -0.003781107953 0.002004900714 -0.4196696877 0.5761593841
3938000000.0 0.001610156149 0.008315796031 -0.003339762101 0.0024882711 -0.00357369869 0.002331184922 -0.3653009236 0.6201698729
3939000000.0 -0.0007024195511 -0.003872301094 -0.003083445365 0.002756752074 -0.003256693948 0.002611718141 -0.3082469404 0.6580662917
3940000000.0 -0.004981446546 -0.01524137797 -0.002842504298 0.002961533144 -0.003036927199 0.002865316346 -0.2486303598 0.6900820627
3941000000.0 -0.01063475013 -0.02587065954 -0.002554156119 0.003193509532 -0.002805523574 0.003101147944 -0.1881253272 0.7159092195
3942000000.0 -0.01797075942 -0.03568622384 -0.002276260871 0.003354529385 -0.002577702049 0.003374434076 -0.1261448413 0.7359944104
3943000000.0 -0.02697037905 -0.04438089467 -0.002091916045 0.003510653973 -0.002314132638 0.003500519088 -0.06311526895 0.7504382598
3944000000.0 -0.03740443662 -0.05165846362 -0.001716061844 0.003701764857 -0.001942102332 0.003648545127 1.593972797e-06 0.7596383176
3945000000.0 -0.04893529415 -0.05744742571 -0.001384964678 0.003831132781 -0.001613312867 0.003740238957 0.06259661913 0.7627515235
3946000000.0 -0.06160826981 -0.06157084255 -0.001140541164 0.003915465903 -0.001316040987 0.003966361284 0.1243669167 0.7608144221
3947000000.0 -0.07511986047 -0.06366204777 -0.0008249112871 0.003980273381 -0.001014367561 0.004059430677 0.1842222214 0.7538073821
3948000000.0 -0.08900217712 -0.06392364742 -0.0004907257389 0.004036329687 -0.0006592071149 0.004130435176 0.2432488948 0.7418577445
3949000000.0 -0.1032297537 -0.06212440169 -0.0002038697858 0.004039535299 -0.0003228828427 0.004206769634 0.3005062342 0.7253422364
3950000000.0 -0.1175170839 -0.05818335462 0.0001583248086 0.004152950365 2.620444138e-05 0.004207022954 0.3548067212 0.7052030867
3951000000.0 -0.1314091086 -0.05229665852 0.0005175619153 0.004094848409 0.0003879324649 0.004219124094 0.4074513614 0.6801909446
